!Agilent Technologies,E5071C,MY46104870,A.11.22
!Date: Sun Jan 01 01:40:09 2017
!Data & Calibration Information:
!Freq	S11:SOLT2(ON)	S21:SOLT2(ON)	S12:SOLT2(ON)	S22:SOLT2(ON)
!PortZ  Port1:50+j0    Port2:50+j0
!Above PortZ is port z conversion or system Z0 setting when saving the data.
!When reading, reference impedance value at option line is always used.
# Hz S dB R 50
1000000	-3.596413e+001	-9.295392e+001	-7.908350e-003	-1.064143e+000	-2.322411e-003	-1.000536e+000	-3.650646e+001	-9.074901e+001
1624375	-3.211036e+001	-9.149669e+001	-7.463881e-003	-1.622990e+000	-3.783469e-003	-1.627667e+000	-3.216386e+001	-9.322018e+001
2248750	-2.919713e+001	-9.073594e+001	1.082209e-003	-2.277607e+000	-3.512005e-003	-2.271014e+000	-2.950443e+001	-9.226856e+001
2873125	-2.732273e+001	-9.248702e+001	-1.072289e-002	-2.898931e+000	-1.433759e-002	-2.926892e+000	-2.708224e+001	-9.225711e+001
3497500	-2.551531e+001	-9.361326e+001	-1.679371e-002	-3.584960e+000	-1.682143e-002	-3.580823e+000	-2.540164e+001	-9.280763e+001
4121875	-2.397777e+001	-9.385253e+001	-2.436652e-002	-4.197132e+000	-2.045029e-002	-4.150049e+000	-2.405616e+001	-9.478451e+001
4746250	-2.280262e+001	-9.419678e+001	-2.137467e-002	-4.816343e+000	-2.457606e-002	-4.773330e+000	-2.280025e+001	-9.484524e+001
5370625	-2.179335e+001	-9.480085e+001	-2.626450e-002	-5.410897e+000	-2.707878e-002	-5.425387e+000	-2.175329e+001	-9.551608e+001
5995000	-2.072334e+001	-9.573040e+001	-3.681297e-002	-6.072620e+000	-3.430405e-002	-6.076827e+000	-2.081506e+001	-9.578625e+001
6619375	-1.996046e+001	-9.678243e+001	-4.967073e-002	-6.661906e+000	-4.502778e-002	-6.663134e+000	-1.993017e+001	-9.670717e+001
7243750	-1.920426e+001	-9.763890e+001	-6.006372e-002	-7.313751e+000	-5.297506e-002	-7.294580e+000	-1.918341e+001	-9.756343e+001
7868125	-1.846966e+001	-9.816464e+001	-6.918072e-002	-7.947229e+000	-6.721184e-002	-7.893394e+000	-1.846111e+001	-9.820345e+001
8492500	-1.781915e+001	-9.873078e+001	-7.746007e-002	-8.538135e+000	-7.333107e-002	-8.549083e+000	-1.783261e+001	-9.875313e+001
9116875	-1.722284e+001	-9.925139e+001	-8.384588e-002	-9.168926e+000	-8.877369e-002	-9.122671e+000	-1.722407e+001	-9.940069e+001
9741250	-1.663312e+001	-9.994715e+001	-9.933127e-002	-9.786226e+000	-1.000798e-001	-9.765416e+000	-1.666275e+001	-9.997358e+001
10365625	-1.613095e+001	-1.006911e+002	-1.142206e-001	-1.039968e+001	-1.128563e-001	-1.039512e+001	-1.612101e+001	-1.005093e+002
10990000	-1.562109e+001	-1.012391e+002	-1.262933e-001	-1.102702e+001	-1.254538e-001	-1.102039e+001	-1.560796e+001	-1.012625e+002
11614375	-1.514391e+001	-1.018261e+002	-1.408124e-001	-1.163792e+001	-1.395268e-001	-1.161629e+001	-1.517637e+001	-1.018477e+002
12238750	-1.471820e+001	-1.025336e+002	-1.547268e-001	-1.224643e+001	-1.572157e-001	-1.223624e+001	-1.470299e+001	-1.025684e+002
12863125	-1.429973e+001	-1.030083e+002	-1.710141e-001	-1.286214e+001	-1.708944e-001	-1.286071e+001	-1.428488e+001	-1.030763e+002
13487500	-1.389276e+001	-1.037371e+002	-1.864313e-001	-1.348084e+001	-1.862592e-001	-1.346676e+001	-1.390899e+001	-1.038517e+002
14111875	-1.351157e+001	-1.044084e+002	-2.046535e-001	-1.408746e+001	-2.041842e-001	-1.406682e+001	-1.351945e+001	-1.043677e+002
14736250	-1.314841e+001	-1.050646e+002	-2.244709e-001	-1.468857e+001	-2.218540e-001	-1.468108e+001	-1.315638e+001	-1.050589e+002
15360625	-1.282463e+001	-1.056412e+002	-2.427450e-001	-1.529291e+001	-2.405841e-001	-1.528997e+001	-1.281617e+001	-1.056814e+002
15985000	-1.249068e+001	-1.063213e+002	-2.620933e-001	-1.588964e+001	-2.609239e-001	-1.587815e+001	-1.248854e+001	-1.063652e+002
16609375	-1.218442e+001	-1.068756e+002	-2.791746e-001	-1.647975e+001	-2.817395e-001	-1.648534e+001	-1.216553e+001	-1.068987e+002
17233750	-1.187576e+001	-1.074657e+002	-2.992932e-001	-1.708092e+001	-3.003165e-001	-1.708062e+001	-1.186856e+001	-1.074976e+002
17858125	-1.159030e+001	-1.081039e+002	-3.211442e-001	-1.766329e+001	-3.220997e-001	-1.768763e+001	-1.158553e+001	-1.080635e+002
18482500	-1.131053e+001	-1.086816e+002	-3.421638e-001	-1.828061e+001	-3.435085e-001	-1.825756e+001	-1.130233e+001	-1.087797e+002
19106875	-1.104496e+001	-1.093724e+002	-3.678404e-001	-1.886298e+001	-3.635474e-001	-1.885968e+001	-1.103529e+001	-1.093046e+002
19731250	-1.078786e+001	-1.099086e+002	-3.906360e-001	-1.946340e+001	-3.867822e-001	-1.945047e+001	-1.078373e+001	-1.098568e+002
20355625	-1.052576e+001	-1.104700e+002	-4.126505e-001	-2.004066e+001	-4.104269e-001	-2.004037e+001	-1.053583e+001	-1.104777e+002
20980000	-1.028934e+001	-1.111204e+002	-4.392509e-001	-2.062853e+001	-4.306911e-001	-2.060579e+001	-1.031176e+001	-1.110413e+002
21604375	-1.006480e+001	-1.116762e+002	-4.627956e-001	-2.120348e+001	-4.628142e-001	-2.119403e+001	-1.005982e+001	-1.116806e+002
22228750	-9.847244e+000	-1.122926e+002	-4.861732e-001	-2.176329e+001	-4.894688e-001	-2.178475e+001	-9.838467e+000	-1.123595e+002
22853125	-9.620885e+000	-1.128399e+002	-5.130959e-001	-2.237886e+001	-5.120185e-001	-2.234604e+001	-9.623409e+000	-1.128535e+002
23477500	-9.409091e+000	-1.134494e+002	-5.426627e-001	-2.294914e+001	-5.344739e-001	-2.293002e+001	-9.429761e+000	-1.134183e+002
24101875	-9.213219e+000	-1.140885e+002	-5.691487e-001	-2.350676e+001	-5.614349e-001	-2.348579e+001	-9.222525e+000	-1.140095e+002
24726250	-9.015973e+000	-1.146041e+002	-5.954114e-001	-2.408156e+001	-5.944465e-001	-2.408641e+001	-9.013047e+000	-1.146661e+002
25350625	-8.824472e+000	-1.152425e+002	-6.251255e-001	-2.462635e+001	-6.208419e-001	-2.462012e+001	-8.826887e+000	-1.151838e+002
25975000	-8.638472e+000	-1.158089e+002	-6.539667e-001	-2.521158e+001	-6.521891e-001	-2.519886e+001	-8.637283e+000	-1.157561e+002
26599375	-8.465547e+000	-1.163208e+002	-6.815492e-001	-2.575777e+001	-6.784463e-001	-2.574455e+001	-8.457716e+000	-1.163618e+002
27223750	-8.284939e+000	-1.169364e+002	-7.133369e-001	-2.631548e+001	-7.080544e-001	-2.631079e+001	-8.294814e+000	-1.168486e+002
27848125	-8.118500e+000	-1.174973e+002	-7.455101e-001	-2.687311e+001	-7.409680e-001	-2.685353e+001	-8.117878e+000	-1.174597e+002
28472500	-7.955021e+000	-1.180381e+002	-7.717783e-001	-2.742801e+001	-7.699746e-001	-2.740897e+001	-7.957577e+000	-1.180338e+002
29096875	-7.790035e+000	-1.186059e+002	-8.053487e-001	-2.798291e+001	-8.005223e-001	-2.796305e+001	-7.799002e+000	-1.185409e+002
29721250	-7.648255e+000	-1.191667e+002	-8.387152e-001	-2.850454e+001	-8.365235e-001	-2.845748e+001	-7.652355e+000	-1.191945e+002
30345625	-7.495400e+000	-1.197616e+002	-8.690395e-001	-2.903665e+001	-8.680548e-001	-2.903998e+001	-7.492973e+000	-1.196896e+002
30970000	-7.342104e+000	-1.202871e+002	-9.045010e-001	-2.959507e+001	-9.020585e-001	-2.957766e+001	-7.343911e+000	-1.202735e+002
31594375	-7.205031e+000	-1.208087e+002	-9.336450e-001	-3.012518e+001	-9.332672e-001	-3.009690e+001	-7.205119e+000	-1.208026e+002
32218750	-7.071081e+000	-1.213672e+002	-9.679771e-001	-3.064403e+001	-9.678372e-001	-3.065767e+001	-7.072174e+000	-1.213535e+002
32843125	-6.932795e+000	-1.219880e+002	-1.007316e+000	-3.118429e+001	-9.993145e-001	-3.116253e+001	-6.931348e+000	-1.219289e+002
33467500	-6.800801e+000	-1.224565e+002	-1.039563e+000	-3.171447e+001	-1.036686e+000	-3.169530e+001	-6.793248e+000	-1.224458e+002
34091875	-6.678106e+000	-1.230161e+002	-1.074711e+000	-3.221158e+001	-1.071749e+000	-3.223053e+001	-6.661955e+000	-1.229748e+002
34716250	-6.552711e+000	-1.235022e+002	-1.106768e+000	-3.275188e+001	-1.106234e+000	-3.272447e+001	-6.546312e+000	-1.235698e+002
35340625	-6.427057e+000	-1.240911e+002	-1.145082e+000	-3.326834e+001	-1.143054e+000	-3.324690e+001	-6.420497e+000	-1.240674e+002
35965000	-6.306716e+000	-1.245966e+002	-1.178563e+000	-3.377872e+001	-1.175610e+000	-3.377074e+001	-6.306041e+000	-1.245572e+002
36589375	-6.184500e+000	-1.251015e+002	-1.217989e+000	-3.430907e+001	-1.215670e+000	-3.428737e+001	-6.188959e+000	-1.250902e+002
37213750	-6.086823e+000	-1.256483e+002	-1.256408e+000	-3.477820e+001	-1.245071e+000	-3.477718e+001	-6.082253e+000	-1.256092e+002
37838125	-5.962806e+000	-1.261662e+002	-1.292829e+000	-3.531317e+001	-1.289640e+000	-3.528572e+001	-5.976787e+000	-1.261259e+002
38462500	-5.862294e+000	-1.266582e+002	-1.331749e+000	-3.579956e+001	-1.322840e+000	-3.578449e+001	-5.861720e+000	-1.266281e+002
39086875	-5.744887e+000	-1.272105e+002	-1.372014e+000	-3.632243e+001	-1.360901e+000	-3.629515e+001	-5.759925e+000	-1.271518e+002
39711250	-5.648185e+000	-1.276971e+002	-1.408619e+000	-3.680168e+001	-1.398175e+000	-3.677317e+001	-5.649783e+000	-1.276341e+002
40335625	-5.547653e+000	-1.282190e+002	-1.446854e+000	-3.730152e+001	-1.439282e+000	-3.726100e+001	-5.554868e+000	-1.281086e+002
40960000	-5.457256e+000	-1.287081e+002	-1.486649e+000	-3.776175e+001	-1.479126e+000	-3.773775e+001	-5.462374e+000	-1.286694e+002
41584375	-5.350520e+000	-1.292095e+002	-1.525272e+000	-3.825327e+001	-1.515055e+000	-3.822996e+001	-5.360890e+000	-1.291332e+002
42208750	-5.269631e+000	-1.297218e+002	-1.564114e+000	-3.873406e+001	-1.557798e+000	-3.868813e+001	-5.265413e+000	-1.296051e+002
42833125	-5.175790e+000	-1.302071e+002	-1.605408e+000	-3.922887e+001	-1.596170e+000	-3.917941e+001	-5.175285e+000	-1.301334e+002
43457500	-5.088294e+000	-1.306963e+002	-1.642193e+000	-3.968983e+001	-1.637818e+000	-3.970027e+001	-5.086285e+000	-1.305769e+002
44081875	-5.004365e+000	-1.311399e+002	-1.681550e+000	-4.016061e+001	-1.677241e+000	-4.013610e+001	-5.004864e+000	-1.311043e+002
44706250	-4.913353e+000	-1.316607e+002	-1.725142e+000	-4.063244e+001	-1.715523e+000	-4.060179e+001	-4.921829e+000	-1.315399e+002
45330625	-4.829934e+000	-1.321637e+002	-1.772266e+000	-4.107656e+001	-1.757811e+000	-4.108312e+001	-4.834928e+000	-1.320082e+002
45955000	-4.751846e+000	-1.325996e+002	-1.808712e+000	-4.154894e+001	-1.797914e+000	-4.154425e+001	-4.751941e+000	-1.325396e+002
46579375	-4.668225e+000	-1.330616e+002	-1.849181e+000	-4.201195e+001	-1.844139e+000	-4.199467e+001	-4.665831e+000	-1.330113e+002
47203750	-4.588739e+000	-1.335672e+002	-1.890587e+000	-4.245311e+001	-1.880207e+000	-4.242452e+001	-4.592767e+000	-1.334289e+002
47828125	-4.513565e+000	-1.340430e+002	-1.934571e+000	-4.291038e+001	-1.923735e+000	-4.288865e+001	-4.514979e+000	-1.338512e+002
48452500	-4.441349e+000	-1.345010e+002	-1.976211e+000	-4.336655e+001	-1.968965e+000	-4.333282e+001	-4.444755e+000	-1.343825e+002
49076875	-4.368659e+000	-1.349564e+002	-2.021035e+000	-4.380288e+001	-2.009805e+000	-4.379101e+001	-4.363183e+000	-1.348279e+002
49701250	-4.301531e+000	-1.353851e+002	-2.056249e+000	-4.424402e+001	-2.049763e+000	-4.418679e+001	-4.308852e+000	-1.352527e+002
50325625	-4.229207e+000	-1.358898e+002	-2.105899e+000	-4.467496e+001	-2.091969e+000	-4.465613e+001	-4.235019e+000	-1.357369e+002
50950000	-4.155281e+000	-1.363394e+002	-2.148720e+000	-4.514283e+001	-2.137534e+000	-4.509189e+001	-4.159749e+000	-1.361918e+002
51574375	-4.097080e+000	-1.367420e+002	-2.193982e+000	-4.557127e+001	-2.176839e+000	-4.554770e+001	-4.096841e+000	-1.366116e+002
52198750	-4.023855e+000	-1.372531e+002	-2.237301e+000	-4.600515e+001	-2.221347e+000	-4.594505e+001	-4.029300e+000	-1.370468e+002
52823125	-3.961343e+000	-1.375950e+002	-2.273554e+000	-4.645393e+001	-2.263455e+000	-4.639020e+001	-3.964658e+000	-1.375298e+002
53447500	-3.897919e+000	-1.380852e+002	-2.322581e+000	-4.685873e+001	-2.304435e+000	-4.677173e+001	-3.907698e+000	-1.379413e+002
54071875	-3.842420e+000	-1.385424e+002	-2.365291e+000	-4.725405e+001	-2.349847e+000	-4.721455e+001	-3.842364e+000	-1.383423e+002
54696250	-3.781386e+000	-1.389833e+002	-2.411605e+000	-4.767052e+001	-2.395192e+000	-4.763897e+001	-3.794154e+000	-1.388262e+002
55320625	-3.718310e+000	-1.393959e+002	-2.454195e+000	-4.810723e+001	-2.439608e+000	-4.806601e+001	-3.728201e+000	-1.392034e+002
55945000	-3.662622e+000	-1.398467e+002	-2.495863e+000	-4.849523e+001	-2.486851e+000	-4.848374e+001	-3.666476e+000	-1.396616e+002
56569375	-3.608546e+000	-1.402615e+002	-2.540541e+000	-4.893799e+001	-2.528523e+000	-4.884579e+001	-3.605122e+000	-1.401172e+002
57193750	-3.558576e+000	-1.406946e+002	-2.584822e+000	-4.929491e+001	-2.576503e+000	-4.924963e+001	-3.556467e+000	-1.405240e+002
57818125	-3.494473e+000	-1.410863e+002	-2.628268e+000	-4.975184e+001	-2.618541e+000	-4.965775e+001	-3.503049e+000	-1.409755e+002
58442500	-3.440152e+000	-1.414863e+002	-2.676399e+000	-5.015468e+001	-2.654536e+000	-5.007358e+001	-3.449757e+000	-1.413281e+002
59066875	-3.389163e+000	-1.418905e+002	-2.717674e+000	-5.053116e+001	-2.704893e+000	-5.048979e+001	-3.398313e+000	-1.417235e+002
59691250	-3.336292e+000	-1.423260e+002	-2.769185e+000	-5.094373e+001	-2.747058e+000	-5.087224e+001	-3.349487e+000	-1.421769e+002
60315625	-3.290818e+000	-1.427716e+002	-2.814102e+000	-5.130736e+001	-2.795805e+000	-5.127390e+001	-3.291837e+000	-1.425331e+002
60940000	-3.237698e+000	-1.431675e+002	-2.860179e+000	-5.172689e+001	-2.840567e+000	-5.165889e+001	-3.250794e+000	-1.429252e+002
61564375	-3.193182e+000	-1.435403e+002	-2.899042e+000	-5.207602e+001	-2.883489e+000	-5.203691e+001	-3.198066e+000	-1.433716e+002
62188750	-3.147486e+000	-1.439511e+002	-2.948760e+000	-5.247302e+001	-2.932425e+000	-5.243233e+001	-3.153096e+000	-1.437471e+002
62813125	-3.099317e+000	-1.443624e+002	-2.996682e+000	-5.285915e+001	-2.977832e+000	-5.283043e+001	-3.102503e+000	-1.441851e+002
63437500	-3.061815e+000	-1.447436e+002	-3.037316e+000	-5.319306e+001	-3.021873e+000	-5.318854e+001	-3.066843e+000	-1.445432e+002
64061875	-3.010015e+000	-1.451442e+002	-3.081548e+000	-5.358817e+001	-3.065010e+000	-5.356942e+001	-3.019229e+000	-1.449337e+002
64686250	-2.965495e+000	-1.455369e+002	-3.133076e+000	-5.397111e+001	-3.111522e+000	-5.393761e+001	-2.972617e+000	-1.453281e+002
65310625	-2.922316e+000	-1.458983e+002	-3.174105e+000	-5.434744e+001	-3.161459e+000	-5.428820e+001	-2.931839e+000	-1.456804e+002
65935000	-2.877229e+000	-1.462912e+002	-3.217040e+000	-5.474807e+001	-3.204793e+000	-5.466517e+001	-2.891538e+000	-1.460686e+002
66559375	-2.834461e+000	-1.466293e+002	-3.267674e+000	-5.509407e+001	-3.254979e+000	-5.505631e+001	-2.849133e+000	-1.464442e+002
67183750	-2.800097e+000	-1.470128e+002	-3.310372e+000	-5.548195e+001	-3.296118e+000	-5.537700e+001	-2.808321e+000	-1.468372e+002
67808125	-2.760337e+000	-1.474262e+002	-3.359377e+000	-5.582680e+001	-3.344134e+000	-5.576613e+001	-2.761642e+000	-1.471819e+002
68432500	-2.717816e+000	-1.478206e+002	-3.404181e+000	-5.621259e+001	-3.389947e+000	-5.611485e+001	-2.728838e+000	-1.475973e+002
69056875	-2.685641e+000	-1.481924e+002	-3.453090e+000	-5.655708e+001	-3.429902e+000	-5.648466e+001	-2.693100e+000	-1.479040e+002
69681250	-2.640904e+000	-1.485649e+002	-3.500367e+000	-5.689184e+001	-3.483131e+000	-5.683536e+001	-2.653411e+000	-1.483446e+002
70305625	-2.606396e+000	-1.489363e+002	-3.543346e+000	-5.725091e+001	-3.526299e+000	-5.716955e+001	-2.623025e+000	-1.486563e+002
70930000	-2.571296e+000	-1.492466e+002	-3.586574e+000	-5.758374e+001	-3.568421e+000	-5.753797e+001	-2.582150e+000	-1.490127e+002
71554375	-2.545579e+000	-1.496647e+002	-3.635555e+000	-5.790362e+001	-3.621157e+000	-5.784785e+001	-2.550379e+000	-1.493890e+002
72178750	-2.497568e+000	-1.500087e+002	-3.683850e+000	-5.826529e+001	-3.662141e+000	-5.818879e+001	-2.514501e+000	-1.497524e+002
72803125	-2.467826e+000	-1.503725e+002	-3.730820e+000	-5.860152e+001	-3.708131e+000	-5.854724e+001	-2.477047e+000	-1.500964e+002
73427500	-2.430168e+000	-1.507544e+002	-3.773498e+000	-5.895227e+001	-3.756388e+000	-5.891314e+001	-2.447209e+000	-1.504426e+002
74051875	-2.399801e+000	-1.510701e+002	-3.821158e+000	-5.929034e+001	-3.803062e+000	-5.923464e+001	-2.410819e+000	-1.508005e+002
74676250	-2.363742e+000	-1.514257e+002	-3.868532e+000	-5.963020e+001	-3.849180e+000	-5.954089e+001	-2.381075e+000	-1.511529e+002
75300625	-2.335459e+000	-1.517816e+002	-3.911586e+000	-5.996177e+001	-3.893512e+000	-5.989895e+001	-2.347377e+000	-1.515300e+002
75925000	-2.303557e+000	-1.521078e+002	-3.955909e+000	-6.028251e+001	-3.940112e+000	-6.023999e+001	-2.308512e+000	-1.518219e+002
76549375	-2.272630e+000	-1.524644e+002	-4.012664e+000	-6.057998e+001	-3.985547e+000	-6.056349e+001	-2.281445e+000	-1.521565e+002
77173750	-2.237881e+000	-1.527961e+002	-4.049999e+000	-6.095638e+001	-4.035526e+000	-6.088640e+001	-2.254893e+000	-1.525229e+002
77798125	-2.210698e+000	-1.531478e+002	-4.095075e+000	-6.128717e+001	-4.078509e+000	-6.123504e+001	-2.223412e+000	-1.528899e+002
78422500	-2.181693e+000	-1.534982e+002	-4.146261e+000	-6.159216e+001	-4.126931e+000	-6.153243e+001	-2.203320e+000	-1.532050e+002
79046875	-2.153153e+000	-1.538264e+002	-4.191582e+000	-6.192550e+001	-4.170823e+000	-6.188895e+001	-2.163155e+000	-1.535393e+002
79671250	-2.129635e+000	-1.541504e+002	-4.242989e+000	-6.223803e+001	-4.221731e+000	-6.217934e+001	-2.139511e+000	-1.538576e+002
80295625	-2.097746e+000	-1.545013e+002	-4.283422e+000	-6.258686e+001	-4.261951e+000	-6.251639e+001	-2.109869e+000	-1.541731e+002
80920000	-2.072142e+000	-1.548304e+002	-4.335446e+000	-6.283554e+001	-4.309793e+000	-6.281892e+001	-2.081964e+000	-1.545408e+002
81544375	-2.042658e+000	-1.551311e+002	-4.378357e+000	-6.319430e+001	-4.357818e+000	-6.310337e+001	-2.064109e+000	-1.547911e+002
82168750	-2.019112e+000	-1.554341e+002	-4.423487e+000	-6.349067e+001	-4.405983e+000	-6.340989e+001	-2.032609e+000	-1.551633e+002
82793125	-1.992518e+000	-1.558302e+002	-4.474736e+000	-6.379049e+001	-4.444887e+000	-6.373369e+001	-2.007900e+000	-1.554651e+002
83417500	-1.970932e+000	-1.561022e+002	-4.517007e+000	-6.407593e+001	-4.495611e+000	-6.401415e+001	-1.978469e+000	-1.557861e+002
84041875	-1.938779e+000	-1.564386e+002	-4.562755e+000	-6.441689e+001	-4.546391e+000	-6.436164e+001	-1.953241e+000	-1.561012e+002
84666250	-1.917163e+000	-1.567563e+002	-4.609137e+000	-6.471856e+001	-4.586213e+000	-6.466841e+001	-1.931738e+000	-1.564062e+002
85290625	-1.886675e+000	-1.570497e+002	-4.654124e+000	-6.496052e+001	-4.633165e+000	-6.493248e+001	-1.912270e+000	-1.567529e+002
85915000	-1.869627e+000	-1.573846e+002	-4.697068e+000	-6.533320e+001	-4.684520e+000	-6.524280e+001	-1.878730e+000	-1.570803e+002
86539375	-1.845386e+000	-1.576984e+002	-4.750116e+000	-6.555276e+001	-4.727198e+000	-6.552539e+001	-1.863449e+000	-1.573705e+002
87163750	-1.824805e+000	-1.580305e+002	-4.798583e+000	-6.586038e+001	-4.777010e+000	-6.582669e+001	-1.836210e+000	-1.577024e+002
87788125	-1.801489e+000	-1.583342e+002	-4.838687e+000	-6.617883e+001	-4.826166e+000	-6.611735e+001	-1.820650e+000	-1.580182e+002
88412500	-1.775976e+000	-1.586328e+002	-4.888805e+000	-6.645641e+001	-4.865370e+000	-6.640843e+001	-1.794195e+000	-1.583261e+002
89036875	-1.753279e+000	-1.589603e+002	-4.931698e+000	-6.678314e+001	-4.909826e+000	-6.669785e+001	-1.770724e+000	-1.586055e+002
89661250	-1.735759e+000	-1.592641e+002	-4.981867e+000	-6.702815e+001	-4.957819e+000	-6.700744e+001	-1.745146e+000	-1.589006e+002
90285625	-1.707420e+000	-1.595487e+002	-5.027501e+000	-6.734478e+001	-5.003924e+000	-6.729284e+001	-1.725112e+000	-1.592157e+002
90910000	-1.687788e+000	-1.598327e+002	-5.070069e+000	-6.761013e+001	-5.051412e+000	-6.753733e+001	-1.705328e+000	-1.595083e+002
91534375	-1.669358e+000	-1.601090e+002	-5.115989e+000	-6.789814e+001	-5.098208e+000	-6.781977e+001	-1.687243e+000	-1.598003e+002
92158750	-1.646432e+000	-1.604057e+002	-5.165169e+000	-6.819717e+001	-5.139313e+000	-6.814352e+001	-1.663202e+000	-1.601301e+002
92783125	-1.627165e+000	-1.607103e+002	-5.208289e+000	-6.841276e+001	-5.186285e+000	-6.839084e+001	-1.648220e+000	-1.603722e+002
93407500	-1.607032e+000	-1.610146e+002	-5.251498e+000	-6.875515e+001	-5.232659e+000	-6.869951e+001	-1.630492e+000	-1.607254e+002
94031875	-1.588935e+000	-1.613406e+002	-5.300996e+000	-6.901640e+001	-5.287801e+000	-6.897128e+001	-1.606751e+000	-1.610296e+002
94656250	-1.571858e+000	-1.616060e+002	-5.344077e+000	-6.926474e+001	-5.322983e+000	-6.922417e+001	-1.589098e+000	-1.612828e+002
95280625	-1.549664e+000	-1.619214e+002	-5.395823e+000	-6.958763e+001	-5.372480e+000	-6.948129e+001	-1.573541e+000	-1.615919e+002
