!Agilent Technologies,E5071C,MY46104870,A.11.22
!Date: Sun Jan 01 01:42:35 2017
!Data & Calibration Information:
!Freq	S11:SOLT2(ON)	S21:SOLT2(ON)	S12:SOLT2(ON)	S22:SOLT2(ON)
!PortZ  Port1:50+j0    Port2:50+j0
!Above PortZ is port z conversion or system Z0 setting when saving the data.
!When reading, reference impedance value at option line is always used.
# Hz S dB R 50
1000000	-3.959321e+001	4.308498e+001	-7.427409e-002	-6.192648e-001	-6.468018e-002	-5.453838e-001	-3.942279e+001	4.613731e+001
1624375	-3.665903e+001	5.503350e+001	-6.894330e-002	-9.186304e-001	-5.875192e-002	-8.698767e-001	-3.618887e+001	5.890682e+001
2248750	-3.430884e+001	6.175900e+001	-6.743203e-002	-1.287668e+000	-6.724734e-002	-1.322902e+000	-3.454618e+001	6.386497e+001
2873125	-3.265703e+001	6.783753e+001	-7.570093e-002	-1.684725e+000	-7.940292e-002	-1.693395e+000	-3.261689e+001	6.663908e+001
3497500	-3.115090e+001	7.010425e+001	-8.269536e-002	-2.048238e+000	-7.595597e-002	-2.048575e+000	-3.122243e+001	6.904022e+001
4121875	-2.991619e+001	7.061794e+001	-8.565838e-002	-2.397353e+000	-8.132260e-002	-2.356921e+000	-2.988250e+001	7.026603e+001
4746250	-2.880750e+001	7.276078e+001	-9.521962e-002	-2.714470e+000	-9.034405e-002	-2.735775e+000	-2.892462e+001	7.191951e+001
5370625	-2.779807e+001	7.282047e+001	-9.415288e-002	-2.992317e+000	-9.378008e-002	-3.047006e+000	-2.790839e+001	7.316581e+001
5995000	-2.696264e+001	7.306677e+001	-1.027956e-001	-3.374696e+000	-1.008977e-001	-3.414822e+000	-2.688132e+001	7.269397e+001
6619375	-2.617297e+001	7.344733e+001	-1.064239e-001	-3.743129e+000	-1.075228e-001	-3.714830e+000	-2.617298e+001	7.327406e+001
7243750	-2.539346e+001	7.388737e+001	-1.086695e-001	-4.045253e+000	-1.084635e-001	-4.034636e+000	-2.542531e+001	7.391365e+001
7868125	-2.481796e+001	7.387467e+001	-1.223078e-001	-4.459246e+000	-1.226113e-001	-4.375193e+000	-2.487629e+001	7.410639e+001
8492500	-2.424981e+001	7.370782e+001	-1.208569e-001	-4.734864e+000	-1.214953e-001	-4.702114e+000	-2.423654e+001	7.388249e+001
9116875	-2.363021e+001	7.401146e+001	-1.306124e-001	-5.039291e+000	-1.343732e-001	-5.071556e+000	-2.370224e+001	7.414710e+001
9741250	-2.318577e+001	7.391387e+001	-1.361227e-001	-5.381603e+000	-1.356864e-001	-5.383690e+000	-2.315631e+001	7.386464e+001
10365625	-2.263511e+001	7.404889e+001	-1.423276e-001	-5.707348e+000	-1.410943e-001	-5.696854e+000	-2.266927e+001	7.366147e+001
10990000	-2.216890e+001	7.388793e+001	-1.475229e-001	-6.022988e+000	-1.453885e-001	-6.037922e+000	-2.220411e+001	7.368512e+001
11614375	-2.179822e+001	7.357516e+001	-1.559988e-001	-6.354025e+000	-1.531211e-001	-6.341157e+000	-2.172799e+001	7.367474e+001
12238750	-2.134940e+001	7.341292e+001	-1.583522e-001	-6.676257e+000	-1.621840e-001	-6.657427e+000	-2.138340e+001	7.386407e+001
12863125	-2.097666e+001	7.328263e+001	-1.674505e-001	-6.984035e+000	-1.646088e-001	-6.981021e+000	-2.095425e+001	7.343382e+001
13487500	-2.060319e+001	7.336205e+001	-1.715948e-001	-7.307451e+000	-1.717179e-001	-7.296601e+000	-2.058171e+001	7.356032e+001
14111875	-2.025975e+001	7.317419e+001	-1.800009e-001	-7.620899e+000	-1.776473e-001	-7.614906e+000	-2.021984e+001	7.302093e+001
14736250	-1.990114e+001	7.303179e+001	-1.864206e-001	-7.949888e+000	-1.847621e-001	-7.930098e+000	-1.988580e+001	7.308085e+001
15360625	-1.956859e+001	7.284192e+001	-1.924920e-001	-8.268329e+000	-1.907341e-001	-8.246944e+000	-1.954128e+001	7.291680e+001
15985000	-1.923371e+001	7.272543e+001	-2.008486e-001	-8.570603e+000	-2.013517e-001	-8.554802e+000	-1.925238e+001	7.280614e+001
16609375	-1.894999e+001	7.238828e+001	-2.075058e-001	-8.887551e+000	-2.068816e-001	-8.878285e+000	-1.895333e+001	7.267766e+001
17233750	-1.867126e+001	7.206332e+001	-2.110894e-001	-9.203164e+000	-2.130521e-001	-9.177954e+000	-1.864618e+001	7.217657e+001
17858125	-1.838822e+001	7.197021e+001	-2.198831e-001	-9.503271e+000	-2.217110e-001	-9.509914e+000	-1.838306e+001	7.214509e+001
18482500	-1.807759e+001	7.182604e+001	-2.250192e-001	-9.808470e+000	-2.248224e-001	-9.821904e+000	-1.812221e+001	7.198727e+001
19106875	-1.784309e+001	7.175706e+001	-2.345913e-001	-1.012682e+001	-2.343433e-001	-1.013258e+001	-1.784450e+001	7.163327e+001
19731250	-1.758822e+001	7.138780e+001	-2.402875e-001	-1.044197e+001	-2.412672e-001	-1.043702e+001	-1.759794e+001	7.146723e+001
20355625	-1.737289e+001	7.126435e+001	-2.488205e-001	-1.075804e+001	-2.490488e-001	-1.074212e+001	-1.735778e+001	7.117761e+001
20980000	-1.710536e+001	7.088896e+001	-2.558027e-001	-1.105441e+001	-2.535663e-001	-1.105751e+001	-1.708773e+001	7.101352e+001
21604375	-1.685320e+001	7.069377e+001	-2.624543e-001	-1.136415e+001	-2.631650e-001	-1.137257e+001	-1.688246e+001	7.078032e+001
22228750	-1.666793e+001	7.051540e+001	-2.688427e-001	-1.169492e+001	-2.714667e-001	-1.167783e+001	-1.667751e+001	7.070105e+001
22853125	-1.644413e+001	7.021305e+001	-2.777946e-001	-1.199558e+001	-2.792817e-001	-1.198173e+001	-1.645546e+001	7.029618e+001
23477500	-1.625628e+001	7.000470e+001	-2.851926e-001	-1.229354e+001	-2.852145e-001	-1.228806e+001	-1.620558e+001	7.006930e+001
24101875	-1.601522e+001	6.980363e+001	-2.924697e-001	-1.257770e+001	-2.917631e-001	-1.260833e+001	-1.601505e+001	6.978996e+001
24726250	-1.583541e+001	6.957806e+001	-3.009025e-001	-1.290844e+001	-3.001171e-001	-1.290261e+001	-1.583850e+001	6.964858e+001
25350625	-1.564850e+001	6.930257e+001	-3.094330e-001	-1.322402e+001	-3.094033e-001	-1.321174e+001	-1.563020e+001	6.933253e+001
25975000	-1.544954e+001	6.914546e+001	-3.167204e-001	-1.351660e+001	-3.176679e-001	-1.350243e+001	-1.546276e+001	6.923669e+001
26599375	-1.525236e+001	6.877033e+001	-3.253717e-001	-1.382410e+001	-3.260395e-001	-1.383067e+001	-1.528590e+001	6.883909e+001
27223750	-1.506748e+001	6.860128e+001	-3.327272e-001	-1.410105e+001	-3.346296e-001	-1.412671e+001	-1.507315e+001	6.864829e+001
27848125	-1.491193e+001	6.833148e+001	-3.396234e-001	-1.441581e+001	-3.406633e-001	-1.440881e+001	-1.489627e+001	6.838724e+001
28472500	-1.471735e+001	6.823487e+001	-3.515672e-001	-1.469591e+001	-3.527129e-001	-1.473673e+001	-1.474969e+001	6.799892e+001
29096875	-1.457028e+001	6.785007e+001	-3.576806e-001	-1.504778e+001	-3.566401e-001	-1.502323e+001	-1.455002e+001	6.776746e+001
29721250	-1.439768e+001	6.767143e+001	-3.699152e-001	-1.533055e+001	-3.682921e-001	-1.534267e+001	-1.438147e+001	6.768844e+001
30345625	-1.422254e+001	6.732162e+001	-3.750570e-001	-1.563040e+001	-3.767970e-001	-1.565232e+001	-1.423954e+001	6.729409e+001
30970000	-1.407492e+001	6.710681e+001	-3.816018e-001	-1.592367e+001	-3.850447e-001	-1.594678e+001	-1.408580e+001	6.707708e+001
31594375	-1.391639e+001	6.676656e+001	-3.921322e-001	-1.622219e+001	-3.930778e-001	-1.623873e+001	-1.391421e+001	6.687150e+001
32218750	-1.376220e+001	6.652140e+001	-3.994453e-001	-1.653813e+001	-4.017885e-001	-1.654431e+001	-1.375066e+001	6.655114e+001
32843125	-1.362997e+001	6.633803e+001	-4.088341e-001	-1.684180e+001	-4.114674e-001	-1.681769e+001	-1.363040e+001	6.646356e+001
33467500	-1.347504e+001	6.602227e+001	-4.189304e-001	-1.711116e+001	-4.207687e-001	-1.713020e+001	-1.347751e+001	6.605653e+001
34091875	-1.333586e+001	6.589998e+001	-4.287088e-001	-1.743077e+001	-4.286630e-001	-1.744265e+001	-1.333999e+001	6.576687e+001
34716250	-1.318128e+001	6.545826e+001	-4.366213e-001	-1.772252e+001	-4.364210e-001	-1.771851e+001	-1.319499e+001	6.562685e+001
35340625	-1.305404e+001	6.532402e+001	-4.432512e-001	-1.799061e+001	-4.450270e-001	-1.803394e+001	-1.305574e+001	6.533129e+001
35965000	-1.292407e+001	6.493420e+001	-4.559987e-001	-1.831616e+001	-4.559327e-001	-1.831270e+001	-1.292035e+001	6.507315e+001
36589375	-1.280977e+001	6.465002e+001	-4.649373e-001	-1.860755e+001	-4.688609e-001	-1.860484e+001	-1.280840e+001	6.470113e+001
37213750	-1.266745e+001	6.447780e+001	-4.728358e-001	-1.891539e+001	-4.763041e-001	-1.891846e+001	-1.264584e+001	6.452477e+001
37838125	-1.253775e+001	6.420530e+001	-4.823784e-001	-1.919320e+001	-4.842800e-001	-1.921143e+001	-1.252956e+001	6.425335e+001
38462500	-1.241049e+001	6.399356e+001	-4.928762e-001	-1.949399e+001	-4.947826e-001	-1.949873e+001	-1.240114e+001	6.392832e+001
39086875	-1.228796e+001	6.370842e+001	-5.037960e-001	-1.977393e+001	-5.028518e-001	-1.982290e+001	-1.227751e+001	6.363555e+001
39711250	-1.218057e+001	6.334363e+001	-5.131747e-001	-2.009430e+001	-5.135171e-001	-2.010360e+001	-1.214827e+001	6.332465e+001
40335625	-1.206648e+001	6.319172e+001	-5.240425e-001	-2.036598e+001	-5.253480e-001	-2.038458e+001	-1.204534e+001	6.312848e+001
40960000	-1.193796e+001	6.287040e+001	-5.337211e-001	-2.066966e+001	-5.339810e-001	-2.068003e+001	-1.193059e+001	6.292467e+001
41584375	-1.182556e+001	6.258903e+001	-5.438222e-001	-2.097286e+001	-5.469154e-001	-2.097569e+001	-1.181005e+001	6.252916e+001
42208750	-1.169905e+001	6.237558e+001	-5.515687e-001	-2.125397e+001	-5.551330e-001	-2.125298e+001	-1.170423e+001	6.233110e+001
42833125	-1.159305e+001	6.218567e+001	-5.620654e-001	-2.153161e+001	-5.630621e-001	-2.154583e+001	-1.159090e+001	6.207742e+001
43457500	-1.147788e+001	6.189934e+001	-5.753083e-001	-2.182113e+001	-5.747952e-001	-2.185187e+001	-1.147877e+001	6.171417e+001
44081875	-1.137871e+001	6.160167e+001	-5.854793e-001	-2.211116e+001	-5.857501e-001	-2.215469e+001	-1.136379e+001	6.153355e+001
44706250	-1.126706e+001	6.133559e+001	-5.973383e-001	-2.240983e+001	-5.981346e-001	-2.244117e+001	-1.124997e+001	6.117709e+001
45330625	-1.117356e+001	6.113015e+001	-6.019328e-001	-2.270081e+001	-6.070515e-001	-2.270690e+001	-1.116166e+001	6.097207e+001
45955000	-1.105618e+001	6.088376e+001	-6.150182e-001	-2.295537e+001	-6.167131e-001	-2.300289e+001	-1.105795e+001	6.072839e+001
46579375	-1.096240e+001	6.061137e+001	-6.284366e-001	-2.327452e+001	-6.252163e-001	-2.329854e+001	-1.096220e+001	6.047050e+001
47203750	-1.086975e+001	6.030224e+001	-6.390510e-001	-2.356938e+001	-6.401329e-001	-2.357504e+001	-1.085530e+001	6.014986e+001
47828125	-1.076996e+001	6.009679e+001	-6.462770e-001	-2.384440e+001	-6.513712e-001	-2.386298e+001	-1.075907e+001	5.986894e+001
48452500	-1.067155e+001	5.973824e+001	-6.569295e-001	-2.412321e+001	-6.593170e-001	-2.415274e+001	-1.066485e+001	5.967057e+001
49076875	-1.057172e+001	5.946756e+001	-6.691531e-001	-2.443275e+001	-6.702986e-001	-2.443236e+001	-1.056966e+001	5.940334e+001
49701250	-1.047608e+001	5.919016e+001	-6.809003e-001	-2.470690e+001	-6.815762e-001	-2.475612e+001	-1.045898e+001	5.915349e+001
50325625	-1.039578e+001	5.893209e+001	-6.894953e-001	-2.500757e+001	-6.936346e-001	-2.501462e+001	-1.037318e+001	5.881394e+001
50950000	-1.030314e+001	5.868808e+001	-7.000261e-001	-2.528720e+001	-7.031061e-001	-2.529429e+001	-1.028726e+001	5.864315e+001
51574375	-1.020371e+001	5.845137e+001	-7.110159e-001	-2.556261e+001	-7.159168e-001	-2.558746e+001	-1.019609e+001	5.829108e+001
52198750	-1.013619e+001	5.818294e+001	-7.251316e-001	-2.583156e+001	-7.288023e-001	-2.587909e+001	-1.009601e+001	5.799025e+001
52823125	-1.002038e+001	5.781424e+001	-7.342682e-001	-2.611885e+001	-7.411365e-001	-2.614692e+001	-1.002320e+001	5.768187e+001
53447500	-9.950378e+000	5.765112e+001	-7.471103e-001	-2.639961e+001	-7.510940e-001	-2.643472e+001	-9.929832e+000	5.747394e+001
54071875	-9.842619e+000	5.733044e+001	-7.580892e-001	-2.669345e+001	-7.646665e-001	-2.672956e+001	-9.843842e+000	5.719035e+001
54696250	-9.769702e+000	5.716445e+001	-7.720685e-001	-2.698246e+001	-7.741435e-001	-2.700827e+001	-9.755155e+000	5.698970e+001
55320625	-9.704743e+000	5.686708e+001	-7.827537e-001	-2.723673e+001	-7.879351e-001	-2.729429e+001	-9.673078e+000	5.660181e+001
55945000	-9.618157e+000	5.660259e+001	-7.939864e-001	-2.752806e+001	-8.001124e-001	-2.755706e+001	-9.601145e+000	5.633060e+001
56569375	-9.532453e+000	5.626368e+001	-8.079032e-001	-2.781720e+001	-8.094063e-001	-2.784198e+001	-9.524050e+000	5.615420e+001
57193750	-9.442812e+000	5.610193e+001	-8.174009e-001	-2.807349e+001	-8.218928e-001	-2.812545e+001	-9.435794e+000	5.588844e+001
57818125	-9.367806e+000	5.577395e+001	-8.304177e-001	-2.834220e+001	-8.320469e-001	-2.840421e+001	-9.367226e+000	5.564212e+001
58442500	-9.298110e+000	5.553442e+001	-8.447181e-001	-2.863387e+001	-8.461008e-001	-2.870387e+001	-9.268194e+000	5.530170e+001
59066875	-9.206787e+000	5.520427e+001	-8.555530e-001	-2.893045e+001	-8.618801e-001	-2.896649e+001	-9.199422e+000	5.495950e+001
59691250	-9.142152e+000	5.498963e+001	-8.669204e-001	-2.920072e+001	-8.694085e-001	-2.925550e+001	-9.121550e+000	5.481894e+001
60315625	-9.063573e+000	5.475958e+001	-8.774909e-001	-2.947635e+001	-8.851216e-001	-2.951327e+001	-9.042737e+000	5.443380e+001
60940000	-8.996596e+000	5.447242e+001	-8.911018e-001	-2.975004e+001	-8.992209e-001	-2.978767e+001	-8.976592e+000	5.416567e+001
61564375	-8.919168e+000	5.421759e+001	-9.054881e-001	-3.003747e+001	-9.106396e-001	-3.008364e+001	-8.898148e+000	5.391181e+001
62188750	-8.837751e+000	5.396201e+001	-9.145478e-001	-3.032422e+001	-9.201770e-001	-3.035634e+001	-8.827398e+000	5.369408e+001
62813125	-8.788530e+000	5.368977e+001	-9.302588e-001	-3.057426e+001	-9.364478e-001	-3.061402e+001	-8.763268e+000	5.335362e+001
63437500	-8.690944e+000	5.345002e+001	-9.418211e-001	-3.087431e+001	-9.469004e-001	-3.089809e+001	-8.677062e+000	5.315246e+001
64061875	-8.627054e+000	5.316655e+001	-9.559428e-001	-3.114858e+001	-9.591919e-001	-3.118084e+001	-8.612328e+000	5.286144e+001
64686250	-8.567598e+000	5.290411e+001	-9.648592e-001	-3.141392e+001	-9.735555e-001	-3.144438e+001	-8.547039e+000	5.256691e+001
65310625	-8.492365e+000	5.264621e+001	-9.788817e-001	-3.167247e+001	-9.867142e-001	-3.172617e+001	-8.476717e+000	5.231261e+001
65935000	-8.433645e+000	5.231947e+001	-9.944228e-001	-3.193716e+001	-9.964380e-001	-3.202264e+001	-8.405874e+000	5.207168e+001
66559375	-8.365982e+000	5.207270e+001	-1.009260e+000	-3.222082e+001	-1.011670e+000	-3.225407e+001	-8.349052e+000	5.178825e+001
67183750	-8.295090e+000	5.179924e+001	-1.021328e+000	-3.249772e+001	-1.024969e+000	-3.254709e+001	-8.281180e+000	5.155166e+001
67808125	-8.222169e+000	5.154603e+001	-1.030390e+000	-3.276473e+001	-1.037851e+000	-3.279440e+001	-8.219196e+000	5.125593e+001
68432500	-8.170805e+000	5.130392e+001	-1.044837e+000	-3.304085e+001	-1.050128e+000	-3.308815e+001	-8.149644e+000	5.102695e+001
69056875	-8.109910e+000	5.103072e+001	-1.058285e+000	-3.331223e+001	-1.066114e+000	-3.336589e+001	-8.082924e+000	5.069388e+001
69681250	-8.043663e+000	5.079033e+001	-1.070511e+000	-3.356854e+001	-1.077295e+000	-3.363832e+001	-8.018101e+000	5.054789e+001
70305625	-7.978105e+000	5.053619e+001	-1.084906e+000	-3.385326e+001	-1.095198e+000	-3.390374e+001	-7.951712e+000	5.017212e+001
70930000	-7.910464e+000	5.030070e+001	-1.096451e+000	-3.411487e+001	-1.105989e+000	-3.416160e+001	-7.901333e+000	4.990321e+001
71554375	-7.857923e+000	5.005588e+001	-1.109946e+000	-3.439693e+001	-1.118855e+000	-3.445537e+001	-7.825829e+000	4.966604e+001
72178750	-7.801974e+000	4.971691e+001	-1.126413e+000	-3.466517e+001	-1.129444e+000	-3.470656e+001	-7.775934e+000	4.943856e+001
72803125	-7.750632e+000	4.948586e+001	-1.138520e+000	-3.492479e+001	-1.142946e+000	-3.498129e+001	-7.720999e+000	4.915512e+001
73427500	-7.683422e+000	4.927929e+001	-1.153550e+000	-3.518946e+001	-1.160098e+000	-3.524098e+001	-7.658267e+000	4.883650e+001
74051875	-7.621237e+000	4.897171e+001	-1.164181e+000	-3.546408e+001	-1.171851e+000	-3.549739e+001	-7.601693e+000	4.859731e+001
74676250	-7.563891e+000	4.870680e+001	-1.180512e+000	-3.571770e+001	-1.188213e+000	-3.577520e+001	-7.540263e+000	4.836760e+001
75300625	-7.513566e+000	4.845293e+001	-1.194622e+000	-3.597479e+001	-1.202096e+000	-3.604431e+001	-7.476988e+000	4.816059e+001
75925000	-7.449067e+000	4.817850e+001	-1.211376e+000	-3.626650e+001	-1.216279e+000	-3.629837e+001	-7.430941e+000	4.780046e+001
76549375	-7.405321e+000	4.799490e+001	-1.222058e+000	-3.652847e+001	-1.231601e+000	-3.655837e+001	-7.371415e+000	4.748903e+001
77173750	-7.349827e+000	4.756157e+001	-1.239723e+000	-3.677674e+001	-1.246813e+000	-3.682525e+001	-7.314590e+000	4.729616e+001
77798125	-7.287391e+000	4.736165e+001	-1.251691e+000	-3.704386e+001	-1.259723e+000	-3.710502e+001	-7.265372e+000	4.704902e+001
78422500	-7.242044e+000	4.712975e+001	-1.269312e+000	-3.731638e+001	-1.274844e+000	-3.737500e+001	-7.199799e+000	4.680566e+001
79046875	-7.180420e+000	4.688531e+001	-1.280096e+000	-3.756728e+001	-1.286770e+000	-3.760727e+001	-7.157882e+000	4.648328e+001
79671250	-7.131750e+000	4.664566e+001	-1.293616e+000	-3.783288e+001	-1.298283e+000	-3.787541e+001	-7.108960e+000	4.625385e+001
80295625	-7.077313e+000	4.634728e+001	-1.307228e+000	-3.807650e+001	-1.319081e+000	-3.814123e+001	-7.043165e+000	4.596028e+001
80920000	-7.021336e+000	4.618327e+001	-1.319145e+000	-3.836348e+001	-1.332576e+000	-3.840801e+001	-6.995643e+000	4.569746e+001
81544375	-6.980666e+000	4.583514e+001	-1.338162e+000	-3.859749e+001	-1.347327e+000	-3.865092e+001	-6.939791e+000	4.541241e+001
82168750	-6.919732e+000	4.555190e+001	-1.350706e+000	-3.888865e+001	-1.358363e+000	-3.892311e+001	-6.895299e+000	4.518786e+001
82793125	-6.872074e+000	4.534599e+001	-1.364870e+000	-3.913631e+001	-1.377090e+000	-3.919061e+001	-6.834427e+000	4.491452e+001
83417500	-6.823742e+000	4.514647e+001	-1.381435e+000	-3.938670e+001	-1.391108e+000	-3.945327e+001	-6.798286e+000	4.467351e+001
84041875	-6.768776e+000	4.482269e+001	-1.392594e+000	-3.965592e+001	-1.405317e+000	-3.967814e+001	-6.746915e+000	4.437534e+001
84666250	-6.731471e+000	4.456243e+001	-1.414400e+000	-3.990233e+001	-1.420912e+000	-3.995622e+001	-6.698998e+000	4.412673e+001
85290625	-6.678340e+000	4.433826e+001	-1.426787e+000	-4.016264e+001	-1.432746e+000	-4.025194e+001	-6.652573e+000	4.393503e+001
85915000	-6.628548e+000	4.399231e+001	-1.445172e+000	-4.042261e+001	-1.445328e+000	-4.046915e+001	-6.605557e+000	4.365630e+001
86539375	-6.580933e+000	4.384607e+001	-1.456922e+000	-4.069074e+001	-1.462961e+000	-4.075323e+001	-6.553119e+000	4.342959e+001
87163750	-6.538621e+000	4.359567e+001	-1.471208e+000	-4.093754e+001	-1.475614e+000	-4.097125e+001	-6.513220e+000	4.315281e+001
87788125	-6.479183e+000	4.332725e+001	-1.482663e+000	-4.121768e+001	-1.492326e+000	-4.124787e+001	-6.459322e+000	4.295227e+001
88412500	-6.443316e+000	4.309424e+001	-1.499857e+000	-4.143535e+001	-1.509347e+000	-4.152090e+001	-6.411864e+000	4.264711e+001
89036875	-6.404356e+000	4.285382e+001	-1.517692e+000	-4.168630e+001	-1.526411e+000	-4.173458e+001	-6.367715e+000	4.231769e+001
89661250	-6.354882e+000	4.259847e+001	-1.528250e+000	-4.196159e+001	-1.542012e+000	-4.200786e+001	-6.322408e+000	4.210878e+001
90285625	-6.316405e+000	4.232191e+001	-1.547243e+000	-4.220294e+001	-1.554026e+000	-4.226498e+001	-6.279273e+000	4.188440e+001
90910000	-6.270319e+000	4.208426e+001	-1.558118e+000	-4.242284e+001	-1.569003e+000	-4.253013e+001	-6.230546e+000	4.162117e+001
91534375	-6.220950e+000	4.180080e+001	-1.577091e+000	-4.272210e+001	-1.585294e+000	-4.278156e+001	-6.181188e+000	4.137856e+001
92158750	-6.180284e+000	4.158769e+001	-1.590189e+000	-4.294251e+001	-1.600206e+000	-4.301043e+001	-6.143287e+000	4.109162e+001
92783125	-6.130331e+000	4.134243e+001	-1.607559e+000	-4.322735e+001	-1.614748e+000	-4.326717e+001	-6.101191e+000	4.085221e+001
93407500	-6.096352e+000	4.103347e+001	-1.624612e+000	-4.346417e+001	-1.631850e+000	-4.352878e+001	-6.060164e+000	4.063185e+001
94031875	-6.051047e+000	4.081463e+001	-1.637267e+000	-4.372624e+001	-1.645675e+000	-4.378934e+001	-6.020687e+000	4.042264e+001
94656250	-5.998427e+000	4.062143e+001	-1.655208e+000	-4.397556e+001	-1.662199e+000	-4.404283e+001	-5.977628e+000	4.013759e+001
95280625	-5.969833e+000	4.034253e+001	-1.668747e+000	-4.419516e+001	-1.674425e+000	-4.428438e+001	-5.938959e+000	3.985615e+001
95905000	-5.929750e+000	4.002076e+001	-1.688928e+000	-4.447942e+001	-1.694278e+000	-4.450156e+001	-5.887845e+000	3.954532e+001
96529375	-5.877647e+000	3.979468e+001	-1.702333e+000	-4.471428e+001	-1.709772e+000	-4.476548e+001	-5.844789e+000	3.936391e+001
