!Agilent Technologies,E5071C,MY46104870,A.11.22
!Date: Sun Jan 01 01:41:47 2017
!Data & Calibration Information:
!Freq	S11:SOLT2(ON)	S21:SOLT2(ON)	S12:SOLT2(ON)	S22:SOLT2(ON)
!PortZ  Port1:50+j0    Port2:50+j0
!Above PortZ is port z conversion or system Z0 setting when saving the data.
!When reading, reference impedance value at option line is always used.
# Hz S dB R 50
1000000	-1.635003e+001	7.855696e+001	-1.683593e-001	-8.996312e+000	-1.655674e-001	-8.941654e+000	-1.627448e+001	7.833974e+001
1624375	-1.237523e+001	7.365116e+001	-3.444646e-001	-1.418043e+001	-3.351497e-001	-1.415098e+001	-1.234943e+001	7.357017e+001
2248750	-9.785133e+000	6.846932e+001	-5.742834e-001	-1.915883e+001	-5.827458e-001	-1.921016e+001	-9.830657e+000	6.880298e+001
2873125	-7.999591e+000	6.414608e+001	-8.796627e-001	-2.385267e+001	-8.814755e-001	-2.384525e+001	-7.981478e+000	6.408773e+001
3497500	-6.631486e+000	5.974939e+001	-1.208321e+000	-2.829062e+001	-1.210292e+000	-2.830252e+001	-6.655911e+000	5.981406e+001
4121875	-5.600163e+000	5.572276e+001	-1.584151e+000	-3.228632e+001	-1.585008e+000	-3.226400e+001	-5.607027e+000	5.571487e+001
4746250	-4.769488e+000	5.199046e+001	-1.981596e+000	-3.598032e+001	-1.973889e+000	-3.593745e+001	-4.780621e+000	5.198879e+001
5370625	-4.110226e+000	4.844832e+001	-2.379544e+000	-3.931012e+001	-2.370995e+000	-3.932802e+001	-4.109809e+000	4.857595e+001
5995000	-3.578107e+000	4.541563e+001	-2.788117e+000	-4.239163e+001	-2.788946e+000	-4.239525e+001	-3.576705e+000	4.545029e+001
6619375	-3.126781e+000	4.253876e+001	-3.215437e+000	-4.520200e+001	-3.207425e+000	-4.524125e+001	-3.129408e+000	4.251790e+001
7243750	-2.752522e+000	3.994330e+001	-3.630991e+000	-4.784449e+001	-3.631356e+000	-4.778186e+001	-2.755382e+000	3.993237e+001
7868125	-2.442831e+000	3.751099e+001	-4.055506e+000	-5.021813e+001	-4.047205e+000	-5.013669e+001	-2.450430e+000	3.752133e+001
8492500	-2.182812e+000	3.524624e+001	-4.457503e+000	-5.233188e+001	-4.460056e+000	-5.232369e+001	-2.180319e+000	3.526517e+001
9116875	-1.961773e+000	3.322215e+001	-4.864959e+000	-5.426937e+001	-4.862776e+000	-5.428009e+001	-1.958715e+000	3.325139e+001
9741250	-1.771276e+000	3.138276e+001	-5.268291e+000	-5.608778e+001	-5.266464e+000	-5.610825e+001	-1.770088e+000	3.137768e+001
10365625	-1.602669e+000	2.960675e+001	-5.660792e+000	-5.777410e+001	-5.652664e+000	-5.775651e+001	-1.607044e+000	2.966852e+001
10990000	-1.458596e+000	2.804202e+001	-6.037647e+000	-5.932409e+001	-6.038746e+000	-5.927888e+001	-1.469521e+000	2.806498e+001
11614375	-1.342642e+000	2.656236e+001	-6.419258e+000	-6.072572e+001	-6.417261e+000	-6.071875e+001	-1.339337e+000	2.655561e+001
12238750	-1.230510e+000	2.515271e+001	-6.784796e+000	-6.202628e+001	-6.786231e+000	-6.204192e+001	-1.232116e+000	2.522216e+001
12863125	-1.136294e+000	2.388751e+001	-7.142809e+000	-6.325841e+001	-7.137427e+000	-6.329744e+001	-1.131035e+000	2.386058e+001
13487500	-1.050714e+000	2.263823e+001	-7.497416e+000	-6.441420e+001	-7.496873e+000	-6.438825e+001	-1.045244e+000	2.266764e+001
14111875	-9.732501e-001	2.149216e+001	-7.842983e+000	-6.548551e+001	-7.842268e+000	-6.546429e+001	-9.759269e-001	2.151370e+001
14736250	-9.068957e-001	2.041245e+001	-8.184451e+000	-6.652191e+001	-8.177268e+000	-6.648824e+001	-9.055300e-001	2.043500e+001
15360625	-8.389477e-001	1.938343e+001	-8.513159e+000	-6.746625e+001	-8.509482e+000	-6.741802e+001	-8.407160e-001	1.942553e+001
15985000	-7.872583e-001	1.843515e+001	-8.841094e+000	-6.830185e+001	-8.838093e+000	-6.828464e+001	-7.861950e-001	1.849755e+001
16609375	-7.402669e-001	1.754695e+001	-9.161008e+000	-6.913027e+001	-9.159764e+000	-6.911897e+001	-7.394353e-001	1.757655e+001
17233750	-7.001884e-001	1.668878e+001	-9.472203e+000	-6.993294e+001	-9.472679e+000	-6.986954e+001	-6.937069e-001	1.670597e+001
17858125	-6.566015e-001	1.585087e+001	-9.782673e+000	-7.068587e+001	-9.785352e+000	-7.067750e+001	-6.552042e-001	1.591214e+001
18482500	-6.183582e-001	1.506795e+001	-1.008782e+001	-7.134223e+001	-1.008973e+001	-7.139595e+001	-6.183705e-001	1.512331e+001
19106875	-5.788089e-001	1.434146e+001	-1.038600e+001	-7.205220e+001	-1.039043e+001	-7.199156e+001	-5.835753e-001	1.438471e+001
19731250	-5.520630e-001	1.361180e+001	-1.068122e+001	-7.267600e+001	-1.068402e+001	-7.262893e+001	-5.561911e-001	1.365234e+001
20355625	-5.217372e-001	1.296837e+001	-1.097875e+001	-7.326976e+001	-1.097572e+001	-7.323705e+001	-5.258604e-001	1.297878e+001
20980000	-4.971822e-001	1.226004e+001	-1.126660e+001	-7.382736e+001	-1.126670e+001	-7.379199e+001	-4.988539e-001	1.234004e+001
21604375	-4.767151e-001	1.166251e+001	-1.155005e+001	-7.439721e+001	-1.155165e+001	-7.437668e+001	-4.721150e-001	1.167830e+001
22228750	-4.518658e-001	1.102977e+001	-1.182971e+001	-7.494480e+001	-1.183133e+001	-7.492219e+001	-4.507103e-001	1.108863e+001
22853125	-4.280361e-001	1.048431e+001	-1.210669e+001	-7.535039e+001	-1.210906e+001	-7.534867e+001	-4.303538e-001	1.054163e+001
23477500	-4.158830e-001	9.897903e+000	-1.238239e+001	-7.587169e+001	-1.238401e+001	-7.581389e+001	-4.137425e-001	9.952529e+000
24101875	-3.938213e-001	9.343559e+000	-1.265132e+001	-7.632253e+001	-1.265842e+001	-7.629137e+001	-3.939391e-001	9.422916e+000
24726250	-3.801700e-001	8.810987e+000	-1.292875e+001	-7.676525e+001	-1.292163e+001	-7.672892e+001	-3.737047e-001	8.885471e+000
25350625	-3.626049e-001	8.333124e+000	-1.319686e+001	-7.716427e+001	-1.319870e+001	-7.713620e+001	-3.623269e-001	8.365575e+000
25975000	-3.489742e-001	7.813546e+000	-1.346293e+001	-7.757739e+001	-1.346599e+001	-7.755403e+001	-3.499574e-001	7.885276e+000
26599375	-3.329930e-001	7.328090e+000	-1.372768e+001	-7.794222e+001	-1.373154e+001	-7.792215e+001	-3.374518e-001	7.390711e+000
27223750	-3.197697e-001	6.880155e+000	-1.398704e+001	-7.826887e+001	-1.400306e+001	-7.825508e+001	-3.201755e-001	6.920693e+000
27848125	-3.105441e-001	6.450421e+000	-1.424896e+001	-7.864392e+001	-1.425773e+001	-7.859593e+001	-3.086721e-001	6.477547e+000
28472500	-2.957392e-001	5.982502e+000	-1.451114e+001	-7.894395e+001	-1.452174e+001	-7.895469e+001	-3.015685e-001	6.047980e+000
29096875	-2.860989e-001	5.568624e+000	-1.477977e+001	-7.929941e+001	-1.477923e+001	-7.925758e+001	-2.868901e-001	5.614795e+000
29721250	-2.795264e-001	5.131039e+000	-1.504677e+001	-7.960323e+001	-1.505103e+001	-7.957331e+001	-2.782305e-001	5.190265e+000
30345625	-2.710915e-001	4.676532e+000	-1.530525e+001	-7.989399e+001	-1.530456e+001	-7.988361e+001	-2.670949e-001	4.773266e+000
30970000	-2.587065e-001	4.292087e+000	-1.556114e+001	-8.018975e+001	-1.556858e+001	-8.018445e+001	-2.636060e-001	4.363079e+000
31594375	-2.539508e-001	3.961801e+000	-1.582398e+001	-8.040869e+001	-1.583882e+001	-8.039749e+001	-2.547843e-001	3.984939e+000
32218750	-2.449434e-001	3.545023e+000	-1.608062e+001	-8.068564e+001	-1.608863e+001	-8.067216e+001	-2.454483e-001	3.611301e+000
32843125	-2.390744e-001	3.158951e+000	-1.634075e+001	-8.095644e+001	-1.635130e+001	-8.087468e+001	-2.382977e-001	3.235126e+000
33467500	-2.292510e-001	2.783601e+000	-1.660362e+001	-8.116364e+001	-1.661361e+001	-8.110332e+001	-2.322269e-001	2.874178e+000
34091875	-2.244352e-001	2.430947e+000	-1.687468e+001	-8.140903e+001	-1.687165e+001	-8.137098e+001	-2.261599e-001	2.487937e+000
34716250	-2.163225e-001	2.091909e+000	-1.713135e+001	-8.153160e+001	-1.713988e+001	-8.155040e+001	-2.187730e-001	2.161168e+000
35340625	-2.133526e-001	1.747484e+000	-1.739110e+001	-8.174846e+001	-1.740236e+001	-8.176048e+001	-2.117859e-001	1.802384e+000
35965000	-2.082386e-001	1.408228e+000	-1.766597e+001	-8.191900e+001	-1.766596e+001	-8.189019e+001	-2.103064e-001	1.459013e+000
36589375	-2.048987e-001	1.051872e+000	-1.792555e+001	-8.210626e+001	-1.793999e+001	-8.208269e+001	-2.021904e-001	1.094663e+000
37213750	-1.998242e-001	7.230124e-001	-1.820266e+001	-8.232054e+001	-1.821524e+001	-8.223595e+001	-2.003914e-001	7.967624e-001
37838125	-1.946197e-001	4.343801e-001	-1.846457e+001	-8.242100e+001	-1.847714e+001	-8.239919e+001	-1.972914e-001	4.723425e-001
38462500	-1.951130e-001	9.075605e-002	-1.874579e+001	-8.259180e+001	-1.875450e+001	-8.255092e+001	-1.890133e-001	1.429827e-001
39086875	-1.865850e-001	-2.324749e-001	-1.901569e+001	-8.267468e+001	-1.902506e+001	-8.263016e+001	-1.846984e-001	-1.618300e-001
39711250	-1.837024e-001	-5.558692e-001	-1.929544e+001	-8.283102e+001	-1.931132e+001	-8.277742e+001	-1.812004e-001	-4.862864e-001
40335625	-1.814763e-001	-8.396079e-001	-1.957482e+001	-8.287727e+001	-1.959232e+001	-8.281926e+001	-1.789742e-001	-7.784535e-001
40960000	-1.764611e-001	-1.132450e+000	-1.985990e+001	-8.299183e+001	-1.988235e+001	-8.295714e+001	-1.763731e-001	-1.075644e+000
41584375	-1.709619e-001	-1.450395e+000	-2.016274e+001	-8.304933e+001	-2.016470e+001	-8.297251e+001	-1.711344e-001	-1.395093e+000
42208750	-1.703024e-001	-1.737508e+000	-2.044245e+001	-8.310894e+001	-2.046762e+001	-8.307643e+001	-1.703828e-001	-1.693338e+000
42833125	-1.679834e-001	-2.049742e+000	-2.074100e+001	-8.317421e+001	-2.074495e+001	-8.307716e+001	-1.670418e-001	-1.973261e+000
43457500	-1.576878e-001	-2.273566e+000	-2.104368e+001	-8.312679e+001	-2.104680e+001	-8.315464e+001	-1.632455e-001	-2.254172e+000
44081875	-1.622260e-001	-2.572621e+000	-2.135634e+001	-8.315622e+001	-2.136290e+001	-8.307756e+001	-1.592560e-001	-2.536863e+000
44706250	-1.576098e-001	-2.860753e+000	-2.165975e+001	-8.306213e+001	-2.167506e+001	-8.307455e+001	-1.589359e-001	-2.833460e+000
45330625	-1.564967e-001	-3.129107e+000	-2.197810e+001	-8.313656e+001	-2.197739e+001	-8.305891e+001	-1.547785e-001	-3.105710e+000
45955000	-1.515764e-001	-3.439219e+000	-2.229604e+001	-8.305332e+001	-2.230418e+001	-8.303815e+001	-1.535203e-001	-3.381928e+000
46579375	-1.510436e-001	-3.670871e+000	-2.263547e+001	-8.290527e+001	-2.262609e+001	-8.301579e+001	-1.506892e-001	-3.634330e+000
47203750	-1.502213e-001	-3.957354e+000	-2.297233e+001	-8.289939e+001	-2.298184e+001	-8.282839e+001	-1.501102e-001	-3.912564e+000
47828125	-1.494212e-001	-4.221825e+000	-2.329544e+001	-8.274798e+001	-2.332261e+001	-8.267938e+001	-1.471231e-001	-4.181733e+000
48452500	-1.417299e-001	-4.473186e+000	-2.364676e+001	-8.259900e+001	-2.367417e+001	-8.260997e+001	-1.464228e-001	-4.452176e+000
49076875	-1.392329e-001	-4.766904e+000	-2.401268e+001	-8.250797e+001	-2.402085e+001	-8.239988e+001	-1.436956e-001	-4.708219e+000
49701250	-1.416638e-001	-4.999524e+000	-2.437539e+001	-8.230068e+001	-2.440063e+001	-8.225269e+001	-1.453359e-001	-4.946904e+000
50325625	-1.427401e-001	-5.254701e+000	-2.476147e+001	-8.198617e+001	-2.478586e+001	-8.192138e+001	-1.401492e-001	-5.239602e+000
50950000	-1.462324e-001	-5.513072e+000	-2.514609e+001	-8.172276e+001	-2.515373e+001	-8.165259e+001	-1.419184e-001	-5.476134e+000
51574375	-1.407125e-001	-5.786558e+000	-2.553174e+001	-8.135714e+001	-2.555577e+001	-8.126065e+001	-1.365665e-001	-5.730237e+000
52198750	-1.353137e-001	-5.984123e+000	-2.593570e+001	-8.097695e+001	-2.597805e+001	-8.096666e+001	-1.351409e-001	-5.983131e+000
52823125	-1.364765e-001	-6.268962e+000	-2.636793e+001	-8.052258e+001	-2.639392e+001	-8.042578e+001	-1.342878e-001	-6.236894e+000
53447500	-1.334020e-001	-6.477717e+000	-2.681352e+001	-7.997494e+001	-2.685062e+001	-7.997089e+001	-1.324021e-001	-6.464104e+000
54071875	-1.310921e-001	-6.727276e+000	-2.727186e+001	-7.942632e+001	-2.728733e+001	-7.940925e+001	-1.320182e-001	-6.714974e+000
54696250	-1.338657e-001	-6.967370e+000	-2.774408e+001	-7.881456e+001	-2.776391e+001	-7.873088e+001	-1.337689e-001	-6.957602e+000
55320625	-1.301360e-001	-7.244003e+000	-2.823008e+001	-7.806473e+001	-2.824443e+001	-7.792475e+001	-1.305234e-001	-7.203254e+000
55945000	-1.313347e-001	-7.428399e+000	-2.873801e+001	-7.710784e+001	-2.875745e+001	-7.715238e+001	-1.336912e-001	-7.444408e+000
56569375	-1.306135e-001	-7.676396e+000	-2.925460e+001	-7.613227e+001	-2.928026e+001	-7.617316e+001	-1.301635e-001	-7.656376e+000
57193750	-1.309858e-001	-7.926495e+000	-2.980792e+001	-7.503715e+001	-2.981871e+001	-7.514918e+001	-1.302159e-001	-7.912733e+000
57818125	-1.303781e-001	-8.158932e+000	-3.037295e+001	-7.377436e+001	-3.041467e+001	-7.376998e+001	-1.284306e-001	-8.145198e+000
58442500	-1.229269e-001	-8.381709e+000	-3.096893e+001	-7.222223e+001	-3.101565e+001	-7.210199e+001	-1.267895e-001	-8.382821e+000
59066875	-1.237574e-001	-8.632921e+000	-3.162931e+001	-7.033319e+001	-3.163734e+001	-7.036460e+001	-1.279439e-001	-8.608821e+000
59691250	-1.228584e-001	-8.835278e+000	-3.226350e+001	-6.834428e+001	-3.230151e+001	-6.846457e+001	-1.271575e-001	-8.827863e+000
60315625	-1.255079e-001	-9.073874e+000	-3.296365e+001	-6.606852e+001	-3.300110e+001	-6.592424e+001	-1.246815e-001	-9.065686e+000
60940000	-1.244070e-001	-9.311540e+000	-3.369299e+001	-6.339516e+001	-3.371588e+001	-6.321753e+001	-1.268465e-001	-9.291128e+000
61564375	-1.252558e-001	-9.514505e+000	-3.443358e+001	-6.004352e+001	-3.443341e+001	-5.977088e+001	-1.282585e-001	-9.527391e+000
62188750	-1.257252e-001	-9.758145e+000	-3.518798e+001	-5.589329e+001	-3.519810e+001	-5.593411e+001	-1.264972e-001	-9.754179e+000
62813125	-1.299603e-001	-9.971690e+000	-3.591830e+001	-5.112647e+001	-3.591157e+001	-5.075300e+001	-1.250209e-001	-9.982184e+000
63437500	-1.272928e-001	-1.016985e+001	-3.668862e+001	-4.532933e+001	-3.667656e+001	-4.543230e+001	-1.245513e-001	-1.019291e+001
64061875	-1.246090e-001	-1.040909e+001	-3.733553e+001	-3.902606e+001	-3.736292e+001	-3.909900e+001	-1.251134e-001	-1.040133e+001
64686250	-1.250572e-001	-1.064318e+001	-3.792221e+001	-3.189232e+001	-3.792699e+001	-3.175074e+001	-1.247403e-001	-1.063443e+001
65310625	-1.262347e-001	-1.085639e+001	-3.839453e+001	-2.265745e+001	-3.836043e+001	-2.304134e+001	-1.249283e-001	-1.084441e+001
65935000	-1.222672e-001	-1.106152e+001	-3.862022e+001	-1.404226e+001	-3.858659e+001	-1.419314e+001	-1.255263e-001	-1.106811e+001
66559375	-1.232167e-001	-1.128760e+001	-3.857394e+001	-4.747861e+000	-3.857858e+001	-4.607795e+000	-1.246385e-001	-1.130169e+001
67183750	-1.240264e-001	-1.148241e+001	-3.835438e+001	4.008968e+000	-3.841369e+001	4.159313e+000	-1.266270e-001	-1.153306e+001
67808125	-1.228661e-001	-1.171689e+001	-3.792617e+001	1.204446e+001	-3.796696e+001	1.204334e+001	-1.239457e-001	-1.172665e+001
68432500	-1.238867e-001	-1.190516e+001	-3.735888e+001	1.933805e+001	-3.746091e+001	1.948761e+001	-1.251233e-001	-1.193549e+001
69056875	-1.261764e-001	-1.213299e+001	-3.677485e+001	2.576771e+001	-3.683132e+001	2.571641e+001	-1.288977e-001	-1.215265e+001
69681250	-1.229744e-001	-1.235263e+001	-3.611599e+001	3.084498e+001	-3.615369e+001	3.100568e+001	-1.249326e-001	-1.236033e+001
70305625	-1.244852e-001	-1.256112e+001	-3.544093e+001	3.537139e+001	-3.542876e+001	3.542988e+001	-1.286666e-001	-1.258741e+001
70930000	-1.264441e-001	-1.276011e+001	-3.475333e+001	3.954070e+001	-3.477386e+001	3.935733e+001	-1.288789e-001	-1.277311e+001
71554375	-1.291111e-001	-1.296161e+001	-3.412979e+001	4.205623e+001	-3.411153e+001	4.224245e+001	-1.290925e-001	-1.302228e+001
72178750	-1.276498e-001	-1.317910e+001	-3.349102e+001	4.492386e+001	-3.351734e+001	4.503551e+001	-1.302518e-001	-1.320837e+001
72803125	-1.270185e-001	-1.339791e+001	-3.288968e+001	4.722501e+001	-3.288864e+001	4.739263e+001	-1.285138e-001	-1.339800e+001
73427500	-1.295699e-001	-1.359662e+001	-3.231814e+001	4.932364e+001	-3.232878e+001	4.932440e+001	-1.295353e-001	-1.364473e+001
74051875	-1.297828e-001	-1.380589e+001	-3.175219e+001	5.089900e+001	-3.177202e+001	5.099429e+001	-1.269131e-001	-1.382037e+001
74676250	-1.248541e-001	-1.398636e+001	-3.125068e+001	5.233911e+001	-3.127434e+001	5.232713e+001	-1.309082e-001	-1.404786e+001
75300625	-1.299578e-001	-1.421097e+001	-3.077076e+001	5.383396e+001	-3.078419e+001	5.351365e+001	-1.277934e-001	-1.423707e+001
75925000	-1.323875e-001	-1.441248e+001	-3.035207e+001	5.485789e+001	-3.031218e+001	5.482545e+001	-1.294397e-001	-1.443777e+001
76549375	-1.305630e-001	-1.463198e+001	-2.986149e+001	5.574645e+001	-2.990635e+001	5.566261e+001	-1.300466e-001	-1.464011e+001
77173750	-1.319256e-001	-1.481826e+001	-2.944646e+001	5.659741e+001	-2.947365e+001	5.656259e+001	-1.354874e-001	-1.484719e+001
77798125	-1.307894e-001	-1.500110e+001	-2.905256e+001	5.735985e+001	-2.907920e+001	5.737465e+001	-1.349450e-001	-1.504602e+001
78422500	-1.315459e-001	-1.523293e+001	-2.868806e+001	5.804551e+001	-2.871205e+001	5.806167e+001	-1.363086e-001	-1.525820e+001
79046875	-1.331041e-001	-1.542550e+001	-2.829918e+001	5.861371e+001	-2.831829e+001	5.867323e+001	-1.301113e-001	-1.546721e+001
79671250	-1.311298e-001	-1.562288e+001	-2.796857e+001	5.916343e+001	-2.797982e+001	5.920293e+001	-1.365806e-001	-1.564326e+001
80295625	-1.310296e-001	-1.583696e+001	-2.762982e+001	5.968766e+001	-2.765272e+001	5.965827e+001	-1.315829e-001	-1.585860e+001
80920000	-1.373726e-001	-1.598622e+001	-2.731921e+001	6.002857e+001	-2.731747e+001	6.008726e+001	-1.379362e-001	-1.604788e+001
81544375	-1.324538e-001	-1.620783e+001	-2.699738e+001	6.051078e+001	-2.702828e+001	6.041196e+001	-1.428128e-001	-1.625899e+001
82168750	-1.387497e-001	-1.640698e+001	-2.669344e+001	6.067972e+001	-2.672647e+001	6.076929e+001	-1.391153e-001	-1.645309e+001
82793125	-1.347330e-001	-1.660230e+001	-2.639758e+001	6.098010e+001	-2.644060e+001	6.117019e+001	-1.367770e-001	-1.663267e+001
83417500	-1.391489e-001	-1.678946e+001	-2.614092e+001	6.128333e+001	-2.616576e+001	6.123405e+001	-1.437160e-001	-1.684098e+001
84041875	-1.386634e-001	-1.701292e+001	-2.586021e+001	6.149731e+001	-2.588469e+001	6.154429e+001	-1.417607e-001	-1.702857e+001
84666250	-1.407152e-001	-1.720665e+001	-2.560329e+001	6.166966e+001	-2.562900e+001	6.178595e+001	-1.399208e-001	-1.722929e+001
85290625	-1.388447e-001	-1.738972e+001	-2.537632e+001	6.189726e+001	-2.538473e+001	6.199743e+001	-1.458397e-001	-1.738048e+001
85915000	-1.385930e-001	-1.757674e+001	-2.512840e+001	6.212653e+001	-2.514292e+001	6.212884e+001	-1.454263e-001	-1.762400e+001
86539375	-1.395431e-001	-1.778843e+001	-2.489501e+001	6.218595e+001	-2.491369e+001	6.225137e+001	-1.455770e-001	-1.783225e+001
87163750	-1.466336e-001	-1.797793e+001	-2.466077e+001	6.233335e+001	-2.467586e+001	6.241541e+001	-1.468679e-001	-1.798187e+001
87788125	-1.409335e-001	-1.816741e+001	-2.445239e+001	6.247416e+001	-2.446179e+001	6.246323e+001	-1.485774e-001	-1.823291e+001
88412500	-1.461118e-001	-1.835028e+001	-2.422732e+001	6.257431e+001	-2.424866e+001	6.259052e+001	-1.481481e-001	-1.835631e+001
89036875	-1.474441e-001	-1.855195e+001	-2.403092e+001	6.261234e+001	-2.404032e+001	6.262467e+001	-1.512947e-001	-1.857451e+001
89661250	-1.494900e-001	-1.875792e+001	-2.381648e+001	6.263963e+001	-2.383469e+001	6.278291e+001	-1.468560e-001	-1.874861e+001
90285625	-1.502817e-001	-1.893224e+001	-2.362648e+001	6.278942e+001	-2.363493e+001	6.276479e+001	-1.509079e-001	-1.898418e+001
90910000	-1.506427e-001	-1.913238e+001	-2.341974e+001	6.284301e+001	-2.342858e+001	6.279081e+001	-1.521871e-001	-1.914012e+001
91534375	-1.530504e-001	-1.930727e+001	-2.323830e+001	6.282766e+001	-2.325702e+001	6.280410e+001	-1.528842e-001	-1.934636e+001
92158750	-1.529587e-001	-1.949447e+001	-2.305056e+001	6.284538e+001	-2.308338e+001	6.288690e+001	-1.540693e-001	-1.951495e+001
92783125	-1.534537e-001	-1.967864e+001	-2.288454e+001	6.283086e+001	-2.289952e+001	6.286443e+001	-1.552949e-001	-1.970407e+001
93407500	-1.558393e-001	-1.986154e+001	-2.271213e+001	6.291226e+001	-2.272793e+001	6.296371e+001	-1.574250e-001	-1.990294e+001
94031875	-1.535203e-001	-2.009219e+001	-2.252653e+001	6.277955e+001	-2.255227e+001	6.281599e+001	-1.586007e-001	-2.010023e+001
94656250	-1.572982e-001	-2.025545e+001	-2.237811e+001	6.286104e+001	-2.239271e+001	6.284923e+001	-1.636480e-001	-2.028194e+001
95280625	-1.561429e-001	-2.044338e+001	-2.220588e+001	6.285603e+001	-2.221892e+001	6.286730e+001	-1.637907e-001	-2.045415e+001
95905000	-1.595580e-001	-2.063722e+001	-2.204446e+001	6.280333e+001	-2.206654e+001	6.287007e+001	-1.632354e-001	-2.065437e+001
