!Agilent Technologies,E5071C,MY46104870,A.11.22
!Date: Sun Jan 01 01:41:03 2017
!Data & Calibration Information:
!Freq	S11:SOLT2(ON)	S21:SOLT2(ON)	S12:SOLT2(ON)	S22:SOLT2(ON)
!PortZ  Port1:50+j0    Port2:50+j0
!Above PortZ is port z conversion or system Z0 setting when saving the data.
!When reading, reference impedance value at option line is always used.
# Hz S dB R 50
1000000	-3.560093e+001	-9.159898e+001	-4.896473e-003	-1.069064e+000	4.209103e-004	-1.013853e+000	-3.621838e+001	-9.057555e+001
1624375	-3.157160e+001	-9.095056e+001	-1.098769e-002	-1.696373e+000	-1.724458e-003	-1.659834e+000	-3.173481e+001	-9.225047e+001
2248750	-2.880107e+001	-9.017802e+001	3.218864e-003	-2.386784e+000	-5.346722e-003	-2.379128e+000	-2.887965e+001	-9.119275e+001
2873125	-2.682019e+001	-9.287598e+001	-9.263700e-003	-3.019899e+000	-1.101568e-002	-3.018184e+000	-2.673957e+001	-9.222930e+001
3497500	-2.503803e+001	-9.341180e+001	-1.423845e-002	-3.690642e+000	-1.403762e-002	-3.758886e+000	-2.493914e+001	-9.336572e+001
4121875	-2.359098e+001	-9.384149e+001	-2.502726e-002	-4.363044e+000	-2.363985e-002	-4.332997e+000	-2.366722e+001	-9.437252e+001
4746250	-2.238323e+001	-9.530325e+001	-3.289835e-002	-5.001986e+000	-3.100171e-002	-5.000472e+000	-2.236001e+001	-9.521558e+001
5370625	-2.126768e+001	-9.594566e+001	-3.495855e-002	-5.635459e+000	-3.372113e-002	-5.662272e+000	-2.128164e+001	-9.557022e+001
5995000	-2.029072e+001	-9.632110e+001	-4.895966e-002	-6.294104e+000	-4.495125e-002	-6.348039e+000	-2.033841e+001	-9.633380e+001
6619375	-1.949620e+001	-9.723924e+001	-5.721878e-002	-6.962309e+000	-4.801950e-002	-6.938197e+000	-1.949838e+001	-9.711906e+001
7243750	-1.875832e+001	-9.791010e+001	-6.736808e-002	-7.597195e+000	-6.109672e-002	-7.615791e+000	-1.870892e+001	-9.770821e+001
7868125	-1.801337e+001	-9.851733e+001	-7.899646e-002	-8.295081e+000	-7.357525e-002	-8.229904e+000	-1.800807e+001	-9.849304e+001
8492500	-1.735440e+001	-9.917671e+001	-8.227553e-002	-8.941165e+000	-8.403031e-002	-8.899341e+000	-1.736806e+001	-9.905369e+001
9116875	-1.677428e+001	-9.970901e+001	-1.019616e-001	-9.563573e+000	-1.008829e-001	-9.558161e+000	-1.676062e+001	-9.994195e+001
9741250	-1.620265e+001	-1.004144e+002	-1.118778e-001	-1.019674e+001	-1.138669e-001	-1.020707e+001	-1.619622e+001	-1.005192e+002
10365625	-1.566442e+001	-1.011574e+002	-1.280904e-001	-1.084736e+001	-1.286554e-001	-1.086053e+001	-1.565075e+001	-1.010796e+002
10990000	-1.517757e+001	-1.017481e+002	-1.410841e-001	-1.150358e+001	-1.392515e-001	-1.149534e+001	-1.518877e+001	-1.017859e+002
11614375	-1.469264e+001	-1.024873e+002	-1.601104e-001	-1.213773e+001	-1.556533e-001	-1.211525e+001	-1.473866e+001	-1.024779e+002
12238750	-1.426873e+001	-1.031074e+002	-1.720115e-001	-1.278050e+001	-1.755455e-001	-1.276912e+001	-1.426192e+001	-1.031422e+002
12863125	-1.385885e+001	-1.037362e+002	-1.919526e-001	-1.341207e+001	-1.930288e-001	-1.341613e+001	-1.384226e+001	-1.038139e+002
13487500	-1.345852e+001	-1.045015e+002	-2.114316e-001	-1.403785e+001	-2.083102e-001	-1.404128e+001	-1.346705e+001	-1.045163e+002
14111875	-1.308578e+001	-1.050475e+002	-2.280333e-001	-1.467223e+001	-2.261538e-001	-1.466388e+001	-1.309148e+001	-1.050313e+002
14736250	-1.272596e+001	-1.057572e+002	-2.518048e-001	-1.529846e+001	-2.488405e-001	-1.529669e+001	-1.272936e+001	-1.058108e+002
15360625	-1.238872e+001	-1.064830e+002	-2.748154e-001	-1.592107e+001	-2.676101e-001	-1.593340e+001	-1.239255e+001	-1.063499e+002
15985000	-1.206743e+001	-1.069894e+002	-2.915699e-001	-1.654549e+001	-2.907004e-001	-1.655418e+001	-1.206513e+001	-1.070597e+002
16609375	-1.174577e+001	-1.075804e+002	-3.118882e-001	-1.717564e+001	-3.164211e-001	-1.716852e+001	-1.174410e+001	-1.077437e+002
17233750	-1.144435e+001	-1.082695e+002	-3.370131e-001	-1.780803e+001	-3.340752e-001	-1.778564e+001	-1.144998e+001	-1.082748e+002
17858125	-1.116320e+001	-1.088772e+002	-3.600885e-001	-1.841145e+001	-3.593987e-001	-1.840676e+001	-1.116896e+001	-1.088956e+002
18482500	-1.090125e+001	-1.095751e+002	-3.819252e-001	-1.901620e+001	-3.857248e-001	-1.900770e+001	-1.089157e+001	-1.096821e+002
19106875	-1.062773e+001	-1.101781e+002	-4.110890e-001	-1.964590e+001	-4.062954e-001	-1.962816e+001	-1.062598e+001	-1.101675e+002
19731250	-1.037426e+001	-1.108023e+002	-4.356066e-001	-2.024282e+001	-4.324435e-001	-2.024570e+001	-1.037032e+001	-1.107746e+002
20355625	-1.011841e+001	-1.114190e+002	-4.621613e-001	-2.084466e+001	-4.612823e-001	-2.084180e+001	-1.012338e+001	-1.114805e+002
20980000	-9.887184e+000	-1.120321e+002	-4.901139e-001	-2.145053e+001	-4.841602e-001	-2.142889e+001	-9.888562e+000	-1.120491e+002
21604375	-9.662678e+000	-1.126317e+002	-5.171360e-001	-2.204417e+001	-5.147469e-001	-2.203196e+001	-9.663274e+000	-1.126844e+002
22228750	-9.445668e+000	-1.132899e+002	-5.444234e-001	-2.263360e+001	-5.466959e-001	-2.265287e+001	-9.438294e+000	-1.133329e+002
22853125	-9.220964e+000	-1.138636e+002	-5.739235e-001	-2.325216e+001	-5.723330e-001	-2.323026e+001	-9.225430e+000	-1.138920e+002
23477500	-9.015228e+000	-1.144983e+002	-6.071962e-001	-2.384056e+001	-5.959925e-001	-2.382303e+001	-9.020802e+000	-1.144932e+002
24101875	-8.823272e+000	-1.151072e+002	-6.342741e-001	-2.441995e+001	-6.264796e-001	-2.439673e+001	-8.831198e+000	-1.150512e+002
24726250	-8.621506e+000	-1.157202e+002	-6.652351e-001	-2.500616e+001	-6.645855e-001	-2.502059e+001	-8.616544e+000	-1.157232e+002
25350625	-8.441298e+000	-1.162774e+002	-6.965947e-001	-2.558129e+001	-6.948318e-001	-2.556654e+001	-8.430585e+000	-1.163150e+002
25975000	-8.253392e+000	-1.169350e+002	-7.278193e-001	-2.616563e+001	-7.275379e-001	-2.615209e+001	-8.253147e+000	-1.169014e+002
26599375	-8.082557e+000	-1.174592e+002	-7.600689e-001	-2.673362e+001	-7.550022e-001	-2.671602e+001	-8.076031e+000	-1.175166e+002
27223750	-7.910659e+000	-1.180444e+002	-7.941399e-001	-2.730166e+001	-7.879259e-001	-2.729228e+001	-7.914004e+000	-1.180735e+002
27848125	-7.746099e+000	-1.186673e+002	-8.287342e-001	-2.787913e+001	-8.234993e-001	-2.785700e+001	-7.741973e+000	-1.186837e+002
28472500	-7.580122e+000	-1.192655e+002	-8.597933e-001	-2.845498e+001	-8.577051e-001	-2.843648e+001	-7.584996e+000	-1.192134e+002
29096875	-7.430595e+000	-1.198215e+002	-8.943288e-001	-2.900929e+001	-8.911471e-001	-2.900495e+001	-7.430876e+000	-1.197261e+002
29721250	-7.284152e+000	-1.204181e+002	-9.329061e-001	-2.955141e+001	-9.263012e-001	-2.951276e+001	-7.292174e+000	-1.204170e+002
30345625	-7.139499e+000	-1.209512e+002	-9.652771e-001	-3.009192e+001	-9.650259e-001	-3.010107e+001	-7.130135e+000	-1.209800e+002
30970000	-6.991107e+000	-1.215342e+002	-1.002856e+000	-3.064886e+001	-1.001405e+000	-3.064515e+001	-6.987440e+000	-1.215399e+002
31594375	-6.849352e+000	-1.220615e+002	-1.038406e+000	-3.120287e+001	-1.034304e+000	-3.118879e+001	-6.854725e+000	-1.220877e+002
32218750	-6.727987e+000	-1.226012e+002	-1.073205e+000	-3.172906e+001	-1.075695e+000	-3.175283e+001	-6.714944e+000	-1.226139e+002
32843125	-6.582103e+000	-1.232570e+002	-1.116609e+000	-3.227817e+001	-1.110600e+000	-3.225775e+001	-6.580633e+000	-1.232373e+002
33467500	-6.455096e+000	-1.237583e+002	-1.153155e+000	-3.283066e+001	-1.149941e+000	-3.280903e+001	-6.453471e+000	-1.237694e+002
34091875	-6.333433e+000	-1.243401e+002	-1.193578e+000	-3.332855e+001	-1.188451e+000	-3.337109e+001	-6.327738e+000	-1.243208e+002
34716250	-6.217027e+000	-1.248199e+002	-1.226609e+000	-3.387735e+001	-1.226905e+000	-3.384835e+001	-6.206487e+000	-1.249071e+002
35340625	-6.083525e+000	-1.254200e+002	-1.270065e+000	-3.440706e+001	-1.267319e+000	-3.438400e+001	-6.088175e+000	-1.254333e+002
35965000	-5.978120e+000	-1.259070e+002	-1.304867e+000	-3.490926e+001	-1.302826e+000	-3.490815e+001	-5.973243e+000	-1.259480e+002
36589375	-5.856223e+000	-1.264435e+002	-1.348737e+000	-3.546999e+001	-1.346221e+000	-3.544405e+001	-5.858618e+000	-1.264840e+002
37213750	-5.753610e+000	-1.270119e+002	-1.391791e+000	-3.593756e+001	-1.381562e+000	-3.593217e+001	-5.754889e+000	-1.269783e+002
37838125	-5.640865e+000	-1.275359e+002	-1.431785e+000	-3.647839e+001	-1.423250e+000	-3.644531e+001	-5.650477e+000	-1.275889e+002
38462500	-5.539818e+000	-1.280550e+002	-1.473164e+000	-3.696616e+001	-1.464672e+000	-3.696473e+001	-5.547910e+000	-1.280444e+002
39086875	-5.430323e+000	-1.285747e+002	-1.514709e+000	-3.748358e+001	-1.504999e+000	-3.746981e+001	-5.441406e+000	-1.286032e+002
39711250	-5.339004e+000	-1.290750e+002	-1.555556e+000	-3.798212e+001	-1.545573e+000	-3.796381e+001	-5.341960e+000	-1.290954e+002
40335625	-5.238193e+000	-1.296163e+002	-1.597727e+000	-3.848657e+001	-1.589468e+000	-3.845881e+001	-5.246397e+000	-1.295816e+002
40960000	-5.150091e+000	-1.301082e+002	-1.640104e+000	-3.894192e+001	-1.632755e+000	-3.892687e+001	-5.151681e+000	-1.301500e+002
41584375	-5.054270e+000	-1.305720e+002	-1.681666e+000	-3.946950e+001	-1.673188e+000	-3.943193e+001	-5.058554e+000	-1.306040e+002
42208750	-4.966603e+000	-1.311261e+002	-1.725796e+000	-3.993368e+001	-1.718829e+000	-3.989620e+001	-4.963004e+000	-1.311104e+002
42833125	-4.879852e+000	-1.316252e+002	-1.769044e+000	-4.042929e+001	-1.759732e+000	-4.039754e+001	-4.882464e+000	-1.316425e+002
43457500	-4.795230e+000	-1.321443e+002	-1.809990e+000	-4.089344e+001	-1.803675e+000	-4.090928e+001	-4.789940e+000	-1.321171e+002
44081875	-4.707247e+000	-1.325759e+002	-1.854981e+000	-4.136417e+001	-1.849919e+000	-4.134424e+001	-4.715269e+000	-1.325860e+002
44706250	-4.623636e+000	-1.330830e+002	-1.899688e+000	-4.184178e+001	-1.888605e+000	-4.182006e+001	-4.632339e+000	-1.330767e+002
45330625	-4.549205e+000	-1.336159e+002	-1.950161e+000	-4.228819e+001	-1.936644e+000	-4.228377e+001	-4.546732e+000	-1.335084e+002
45955000	-4.474914e+000	-1.340551e+002	-1.986806e+000	-4.275532e+001	-1.979156e+000	-4.276188e+001	-4.472194e+000	-1.340594e+002
46579375	-4.392984e+000	-1.345194e+002	-2.034425e+000	-4.323667e+001	-2.029950e+000	-4.321134e+001	-4.394514e+000	-1.345727e+002
47203750	-4.317976e+000	-1.350092e+002	-2.079726e+000	-4.368071e+001	-2.069182e+000	-4.365697e+001	-4.329055e+000	-1.349873e+002
47828125	-4.246536e+000	-1.355026e+002	-2.126746e+000	-4.413204e+001	-2.114782e+000	-4.411352e+001	-4.245054e+000	-1.354182e+002
48452500	-4.174775e+000	-1.359681e+002	-2.170626e+000	-4.459278e+001	-2.159020e+000	-4.453526e+001	-4.172600e+000	-1.359666e+002
49076875	-4.106380e+000	-1.364082e+002	-2.219198e+000	-4.503783e+001	-2.207064e+000	-4.501865e+001	-4.102324e+000	-1.364219e+002
49701250	-4.045987e+000	-1.368352e+002	-2.256706e+000	-4.546785e+001	-2.249370e+000	-4.541513e+001	-4.045574e+000	-1.368375e+002
50325625	-3.970776e+000	-1.373472e+002	-2.308468e+000	-4.589223e+001	-2.298974e+000	-4.588786e+001	-3.984817e+000	-1.372984e+002
50950000	-3.905139e+000	-1.378451e+002	-2.354639e+000	-4.635416e+001	-2.342395e+000	-4.632332e+001	-3.908806e+000	-1.378111e+002
51574375	-3.847229e+000	-1.382543e+002	-2.403046e+000	-4.678195e+001	-2.387045e+000	-4.676135e+001	-3.844955e+000	-1.381875e+002
52198750	-3.777328e+000	-1.387073e+002	-2.452011e+000	-4.724276e+001	-2.433561e+000	-4.716748e+001	-3.782052e+000	-1.386689e+002
52823125	-3.716936e+000	-1.390705e+002	-2.487655e+000	-4.766840e+001	-2.479465e+000	-4.763018e+001	-3.723810e+000	-1.390993e+002
53447500	-3.657297e+000	-1.395953e+002	-2.542536e+000	-4.808051e+001	-2.523351e+000	-4.799301e+001	-3.662340e+000	-1.395327e+002
54071875	-3.606584e+000	-1.400402e+002	-2.585805e+000	-4.848245e+001	-2.570440e+000	-4.844716e+001	-3.603187e+000	-1.399699e+002
54696250	-3.547699e+000	-1.404821e+002	-2.635130e+000	-4.887498e+001	-2.619580e+000	-4.886160e+001	-3.555877e+000	-1.404424e+002
55320625	-3.488033e+000	-1.408824e+002	-2.684492e+000	-4.931733e+001	-2.667875e+000	-4.928043e+001	-3.494376e+000	-1.408048e+002
55945000	-3.435777e+000	-1.413319e+002	-2.727668e+000	-4.970501e+001	-2.718776e+000	-4.968047e+001	-3.434114e+000	-1.412488e+002
56569375	-3.379700e+000	-1.417517e+002	-2.777162e+000	-5.013359e+001	-2.764935e+000	-5.005119e+001	-3.384801e+000	-1.417210e+002
57193750	-3.331879e+000	-1.421700e+002	-2.823990e+000	-5.049520e+001	-2.815394e+000	-5.047383e+001	-3.339746e+000	-1.421410e+002
57818125	-3.276154e+000	-1.425585e+002	-2.868957e+000	-5.095549e+001	-2.859438e+000	-5.084442e+001	-3.282187e+000	-1.425215e+002
58442500	-3.223751e+000	-1.429898e+002	-2.919317e+000	-5.134946e+001	-2.900780e+000	-5.127748e+001	-3.233349e+000	-1.429117e+002
59066875	-3.176545e+000	-1.433938e+002	-2.963871e+000	-5.173640e+001	-2.953329e+000	-5.168065e+001	-3.182313e+000	-1.433481e+002
59691250	-3.126134e+000	-1.437906e+002	-3.019984e+000	-5.214888e+001	-2.996318e+000	-5.205922e+001	-3.132518e+000	-1.437591e+002
60315625	-3.081683e+000	-1.442620e+002	-3.066140e+000	-5.248076e+001	-3.046761e+000	-5.246094e+001	-3.083514e+000	-1.441530e+002
60940000	-3.033454e+000	-1.446576e+002	-3.114690e+000	-5.290284e+001	-3.093354e+000	-5.283960e+001	-3.042019e+000	-1.445140e+002
61564375	-2.992124e+000	-1.450227e+002	-3.159091e+000	-5.324945e+001	-3.143172e+000	-5.319941e+001	-2.995243e+000	-1.449342e+002
62188750	-2.947205e+000	-1.454488e+002	-3.210781e+000	-5.362827e+001	-3.194662e+000	-5.360290e+001	-2.954156e+000	-1.453445e+002
62813125	-2.897731e+000	-1.458373e+002	-3.259718e+000	-5.401563e+001	-3.240285e+000	-5.398698e+001	-2.896825e+000	-1.457413e+002
63437500	-2.861578e+000	-1.462008e+002	-3.303432e+000	-5.433639e+001	-3.288820e+000	-5.434735e+001	-2.869088e+000	-1.461542e+002
64061875	-2.817595e+000	-1.465988e+002	-3.350860e+000	-5.474401e+001	-3.334335e+000	-5.471464e+001	-2.821837e+000	-1.465365e+002
64686250	-2.773366e+000	-1.470216e+002	-3.405235e+000	-5.511424e+001	-3.383182e+000	-5.509256e+001	-2.782810e+000	-1.469223e+002
65310625	-2.733335e+000	-1.473612e+002	-3.450086e+000	-5.549262e+001	-3.435032e+000	-5.543672e+001	-2.741043e+000	-1.472800e+002
65935000	-2.690511e+000	-1.477567e+002	-3.496413e+000	-5.587058e+001	-3.482623e+000	-5.579961e+001	-2.706236e+000	-1.476524e+002
66559375	-2.655764e+000	-1.481212e+002	-3.544937e+000	-5.621917e+001	-3.534945e+000	-5.619796e+001	-2.663850e+000	-1.480676e+002
67183750	-2.620686e+000	-1.484913e+002	-3.591752e+000	-5.660556e+001	-3.577551e+000	-5.647791e+001	-2.622494e+000	-1.484082e+002
67808125	-2.581847e+000	-1.488957e+002	-3.643604e+000	-5.693198e+001	-3.629804e+000	-5.689652e+001	-2.587861e+000	-1.487887e+002
68432500	-2.541538e+000	-1.492650e+002	-3.693570e+000	-5.732360e+001	-3.678805e+000	-5.723331e+001	-2.554465e+000	-1.491793e+002
69056875	-2.509343e+000	-1.496291e+002	-3.742869e+000	-5.764271e+001	-3.718674e+000	-5.759954e+001	-2.511577e+000	-1.495082e+002
69681250	-2.469923e+000	-1.500064e+002	-3.792802e+000	-5.799677e+001	-3.774293e+000	-5.792079e+001	-2.482032e+000	-1.499173e+002
70305625	-2.437478e+000	-1.503594e+002	-3.840900e+000	-5.833015e+001	-3.823945e+000	-5.826850e+001	-2.450550e+000	-1.502590e+002
70930000	-2.404496e+000	-1.506688e+002	-3.885545e+000	-5.866301e+001	-3.869444e+000	-5.861609e+001	-2.415114e+000	-1.505848e+002
71554375	-2.375363e+000	-1.510929e+002	-3.937508e+000	-5.896696e+001	-3.920184e+000	-5.891479e+001	-2.382891e+000	-1.509666e+002
72178750	-2.335953e+000	-1.514219e+002	-3.986490e+000	-5.932014e+001	-3.965853e+000	-5.925929e+001	-2.350275e+000	-1.513399e+002
72803125	-2.307969e+000	-1.517922e+002	-4.038444e+000	-5.965709e+001	-4.013467e+000	-5.960003e+001	-2.315755e+000	-1.516358e+002
73427500	-2.271543e+000	-1.521612e+002	-4.082224e+000	-5.999502e+001	-4.066578e+000	-5.995464e+001	-2.286565e+000	-1.520195e+002
74051875	-2.240727e+000	-1.524702e+002	-4.131422e+000	-6.031191e+001	-4.112428e+000	-6.027399e+001	-2.251729e+000	-1.523548e+002
74676250	-2.212312e+000	-1.528315e+002	-4.181818e+000	-6.066445e+001	-4.163425e+000	-6.058361e+001	-2.224252e+000	-1.527304e+002
75300625	-2.182253e+000	-1.531918e+002	-4.227451e+000	-6.099304e+001	-4.209545e+000	-6.090372e+001	-2.191924e+000	-1.530535e+002
75925000	-2.154617e+000	-1.534916e+002	-4.276752e+000	-6.131005e+001	-4.262052e+000	-6.128117e+001	-2.165623e+000	-1.534297e+002
76549375	-2.124815e+000	-1.538781e+002	-4.335829e+000	-6.158768e+001	-4.306990e+000	-6.159757e+001	-2.133395e+000	-1.537277e+002
77173750	-2.089558e+000	-1.542201e+002	-4.374386e+000	-6.196610e+001	-4.356877e+000	-6.189379e+001	-2.108968e+000	-1.540840e+002
77798125	-2.068814e+000	-1.545267e+002	-4.419763e+000	-6.230064e+001	-4.403567e+000	-6.221612e+001	-2.079145e+000	-1.544149e+002
78422500	-2.039799e+000	-1.548778e+002	-4.476237e+000	-6.258011e+001	-4.454342e+000	-6.251072e+001	-2.059366e+000	-1.547444e+002
79046875	-2.012666e+000	-1.551975e+002	-4.521268e+000	-6.289482e+001	-4.501265e+000	-6.285290e+001	-2.023237e+000	-1.550695e+002
79671250	-1.988773e+000	-1.555376e+002	-4.576028e+000	-6.321689e+001	-4.552594e+000	-6.315897e+001	-2.000219e+000	-1.554264e+002
80295625	-1.963833e+000	-1.558559e+002	-4.621732e+000	-6.355344e+001	-4.596142e+000	-6.346789e+001	-1.975417e+000	-1.557145e+002
80920000	-1.935059e+000	-1.561660e+002	-4.669337e+000	-6.377939e+001	-4.643883e+000	-6.376889e+001	-1.945686e+000	-1.560389e+002
81544375	-1.910865e+000	-1.564642e+002	-4.718481e+000	-6.414539e+001	-4.696716e+000	-6.405680e+001	-1.926822e+000	-1.563512e+002
82168750	-1.890726e+000	-1.568087e+002	-4.764404e+000	-6.443434e+001	-4.747371e+000	-6.434427e+001	-1.899389e+000	-1.566948e+002
82793125	-1.865850e+000	-1.571504e+002	-4.818663e+000	-6.471604e+001	-4.787222e+000	-6.466652e+001	-1.878813e+000	-1.569800e+002
83417500	-1.845969e+000	-1.574587e+002	-4.859889e+000	-6.499621e+001	-4.840924e+000	-6.493666e+001	-1.854946e+000	-1.573113e+002
84041875	-1.816815e+000	-1.577729e+002	-4.911222e+000	-6.532435e+001	-4.892087e+000	-6.527480e+001	-1.822967e+000	-1.575947e+002
84666250	-1.796612e+000	-1.580925e+002	-4.960054e+000	-6.561448e+001	-4.937639e+000	-6.556858e+001	-1.810948e+000	-1.579295e+002
85290625	-1.772912e+000	-1.583792e+002	-5.006751e+000	-6.585468e+001	-4.982832e+000	-6.583413e+001	-1.787113e+000	-1.582451e+002
85915000	-1.746839e+000	-1.586599e+002	-5.051463e+000	-6.619980e+001	-5.039270e+000	-6.611664e+001	-1.760627e+000	-1.585766e+002
86539375	-1.728625e+000	-1.590069e+002	-5.105742e+000	-6.641979e+001	-5.084227e+000	-6.639866e+001	-1.742550e+000	-1.588791e+002
87163750	-1.707514e+000	-1.593514e+002	-5.154630e+000	-6.673486e+001	-5.134634e+000	-6.669863e+001	-1.719073e+000	-1.591921e+002
87788125	-1.688370e+000	-1.596458e+002	-5.197785e+000	-6.702613e+001	-5.184418e+000	-6.695782e+001	-1.702509e+000	-1.594789e+002
88412500	-1.668485e+000	-1.599353e+002	-5.250421e+000	-6.729971e+001	-5.228089e+000	-6.723594e+001	-1.680874e+000	-1.597587e+002
89036875	-1.641765e+000	-1.602333e+002	-5.297315e+000	-6.760582e+001	-5.274083e+000	-6.754520e+001	-1.659711e+000	-1.600792e+002
89661250	-1.626836e+000	-1.605509e+002	-5.346860e+000	-6.786231e+001	-5.320075e+000	-6.784216e+001	-1.631784e+000	-1.603654e+002
90285625	-1.601937e+000	-1.608024e+002	-5.396345e+000	-6.815187e+001	-5.372983e+000	-6.809096e+001	-1.619040e+000	-1.606634e+002
90910000	-1.581410e+000	-1.610759e+002	-5.441920e+000	-6.841858e+001	-5.420522e+000	-6.834622e+001	-1.596429e+000	-1.609594e+002
91534375	-1.565458e+000	-1.613916e+002	-5.487407e+000	-6.869212e+001	-5.466698e+000	-6.859919e+001	-1.579676e+000	-1.612513e+002
92158750	-1.545895e+000	-1.616524e+002	-5.539664e+000	-6.898534e+001	-5.513493e+000	-6.892214e+001	-1.559119e+000	-1.615662e+002
92783125	-1.530412e+000	-1.619570e+002	-5.583187e+000	-6.919763e+001	-5.562549e+000	-6.917491e+001	-1.543147e+000	-1.618244e+002
93407500	-1.506930e+000	-1.622471e+002	-5.628457e+000	-6.952667e+001	-5.609209e+000	-6.947386e+001	-1.524596e+000	-1.621553e+002
94031875	-1.493374e+000	-1.625630e+002	-5.682643e+000	-6.977605e+001	-5.666614e+000	-6.972054e+001	-1.505727e+000	-1.624445e+002
94656250	-1.475768e+000	-1.628329e+002	-5.726481e+000	-7.000703e+001	-5.702784e+000	-6.996998e+001	-1.492728e+000	-1.627080e+002
95280625	-1.456596e+000	-1.631270e+002	-5.780567e+000	-7.031106e+001	-5.755893e+000	-7.021943e+001	-1.475223e+000	-1.630229e+002
