!Agilent Technologies,E5071C,MY46104870,A.11.22
!Date: Sun Jan 01 02:02:43 2017
!Data & Calibration Information:
!Freq	S11:SOLT2(ON)	S21:SOLT2(ON)	S12:SOLT2(ON)	S22:SOLT2(ON)
!PortZ  Port1:50+j0    Port2:50+j0
!Above PortZ is port z conversion or system Z0 setting when saving the data.
!When reading, reference impedance value at option line is always used.
# Hz S dB R 50
10000	-5.531675e+001	5.641588e+001	-3.526348e-003	-3.755755e-002	1.022258e-002	1.259066e-002	-4.358679e+001	3.113474e+001
5322494	-4.375950e+001	7.325449e+001	-1.200987e-002	-1.507889e+000	-1.495828e-002	-1.534086e+000	-4.482454e+001	7.931598e+001
10634988	-3.877146e+001	8.021810e+001	-1.590620e-002	-3.011407e+000	-1.774869e-002	-3.021328e+000	-3.904553e+001	8.147720e+001
15947481	-3.534979e+001	7.941312e+001	-2.182160e-002	-4.491757e+000	-2.071903e-002	-4.500223e+000	-3.552372e+001	8.174919e+001
21259975	-3.310744e+001	7.861928e+001	-2.554241e-002	-6.014676e+000	-2.396138e-002	-6.016726e+000	-3.310274e+001	8.039977e+001
26572469	-3.104554e+001	7.867052e+001	-3.173366e-002	-7.476199e+000	-3.401594e-002	-7.485578e+000	-3.133204e+001	7.907079e+001
31884963	-2.967922e+001	7.785604e+001	-3.572840e-002	-8.963876e+000	-3.573221e-002	-8.968965e+000	-2.970306e+001	7.806058e+001
37197456	-2.842959e+001	7.664180e+001	-4.064840e-002	-1.044041e+001	-4.069808e-002	-1.044673e+001	-2.840774e+001	7.718908e+001
42509950	-2.721481e+001	7.518560e+001	-4.600897e-002	-1.191764e+001	-4.449273e-002	-1.190790e+001	-2.720196e+001	7.608644e+001
47822444	-2.621502e+001	7.377149e+001	-4.880722e-002	-1.339758e+001	-4.699909e-002	-1.340923e+001	-2.624049e+001	7.455672e+001
53134938	-2.533776e+001	7.220921e+001	-5.527281e-002	-1.486388e+001	-5.506639e-002	-1.486720e+001	-2.534078e+001	7.305237e+001
58447431	-2.449621e+001	7.146141e+001	-5.891775e-002	-1.634519e+001	-6.164050e-002	-1.634467e+001	-2.447319e+001	7.183432e+001
63759925	-2.373630e+001	6.958457e+001	-6.497141e-002	-1.779888e+001	-6.639248e-002	-1.779858e+001	-2.376183e+001	7.020647e+001
69072419	-2.304768e+001	6.818380e+001	-6.849824e-002	-1.927073e+001	-7.252815e-002	-1.927184e+001	-2.309478e+001	6.831321e+001
74384913	-2.246875e+001	6.632975e+001	-7.917242e-002	-2.075895e+001	-7.673305e-002	-2.074100e+001	-2.245598e+001	6.714150e+001
79697406	-2.189226e+001	6.483580e+001	-8.621733e-002	-2.224785e+001	-8.756942e-002	-2.222766e+001	-2.188461e+001	6.614230e+001
85009900	-2.136758e+001	6.443911e+001	-9.266517e-002	-2.363550e+001	-9.466102e-002	-2.362179e+001	-2.130549e+001	6.366566e+001
90322394	-2.080251e+001	6.273987e+001	-9.514083e-002	-2.513107e+001	-9.768342e-002	-2.509881e+001	-2.081278e+001	6.244893e+001
95634888	-2.036275e+001	6.126819e+001	-1.038291e-001	-2.658035e+001	-1.049714e-001	-2.656662e+001	-2.035440e+001	6.089577e+001
100947381	-1.989880e+001	5.939125e+001	-1.102037e-001	-2.803801e+001	-1.123041e-001	-2.801429e+001	-1.984968e+001	5.959935e+001
106259875	-1.946571e+001	5.787101e+001	-1.175315e-001	-2.952321e+001	-1.203817e-001	-2.949718e+001	-1.945163e+001	5.784432e+001
111572369	-1.907996e+001	5.641518e+001	-1.228962e-001	-3.098344e+001	-1.267031e-001	-3.095417e+001	-1.905605e+001	5.645933e+001
116884863	-1.878356e+001	5.491516e+001	-1.346468e-001	-3.241275e+001	-1.356301e-001	-3.241787e+001	-1.865402e+001	5.493928e+001
122197356	-1.841536e+001	5.363079e+001	-1.393763e-001	-3.388404e+001	-1.423757e-001	-3.386858e+001	-1.832016e+001	5.361078e+001
127509850	-1.807510e+001	5.223636e+001	-1.473586e-001	-3.534669e+001	-1.492890e-001	-3.533892e+001	-1.797484e+001	5.210821e+001
132822344	-1.775355e+001	5.083298e+001	-1.578718e-001	-3.681794e+001	-1.615198e-001	-3.682324e+001	-1.765294e+001	5.032743e+001
138134838	-1.736269e+001	4.892317e+001	-1.706585e-001	-3.816042e+001	-1.725975e-001	-3.814262e+001	-1.734746e+001	5.011070e+001
143447331	-1.714739e+001	4.750764e+001	-1.723149e-001	-3.964371e+001	-1.778503e-001	-3.963492e+001	-1.700487e+001	4.795370e+001
148759825	-1.684559e+001	4.594278e+001	-1.809348e-001	-4.111555e+001	-1.845267e-001	-4.110057e+001	-1.673373e+001	4.646692e+001
154072319	-1.657244e+001	4.467294e+001	-1.885217e-001	-4.257049e+001	-1.930978e-001	-4.257723e+001	-1.647442e+001	4.496153e+001
159384813	-1.629783e+001	4.337983e+001	-1.945854e-001	-4.403177e+001	-1.996014e-001	-4.399284e+001	-1.624529e+001	4.335169e+001
164697306	-1.599405e+001	4.177884e+001	-2.043696e-001	-4.548535e+001	-2.079473e-001	-4.546498e+001	-1.594287e+001	4.207212e+001
170009800	-1.577722e+001	4.055092e+001	-2.140073e-001	-4.693936e+001	-2.146088e-001	-4.688983e+001	-1.575097e+001	4.039468e+001
175322294	-1.550323e+001	3.910391e+001	-2.234579e-001	-4.840152e+001	-2.266245e-001	-4.831924e+001	-1.550193e+001	3.888048e+001
180634788	-1.527348e+001	3.727760e+001	-2.350902e-001	-4.983838e+001	-2.337801e-001	-4.976026e+001	-1.528849e+001	3.749895e+001
185947281	-1.505404e+001	3.567896e+001	-2.433619e-001	-5.127605e+001	-2.417171e-001	-5.120873e+001	-1.509372e+001	3.585800e+001
191259775	-1.485632e+001	3.402475e+001	-2.577672e-001	-5.271061e+001	-2.538363e-001	-5.265631e+001	-1.489601e+001	3.443746e+001
196572269	-1.466561e+001	3.252471e+001	-2.654152e-001	-5.414025e+001	-2.606637e-001	-5.409211e+001	-1.467444e+001	3.287565e+001
201884763	-1.447251e+001	3.086359e+001	-2.745413e-001	-5.558297e+001	-2.699414e-001	-5.552300e+001	-1.452661e+001	3.136456e+001
207197256	-1.432666e+001	2.945025e+001	-2.840672e-001	-5.700059e+001	-2.797783e-001	-5.693351e+001	-1.434251e+001	2.981791e+001
212509750	-1.413658e+001	2.774056e+001	-2.932123e-001	-5.843249e+001	-2.865185e-001	-5.839282e+001	-1.416647e+001	2.847784e+001
217822244	-1.397043e+001	2.626385e+001	-3.036497e-001	-5.985535e+001	-2.993855e-001	-5.984672e+001	-1.400988e+001	2.703705e+001
223134738	-1.380512e+001	2.465671e+001	-3.098948e-001	-6.127844e+001	-3.075140e-001	-6.126215e+001	-1.386328e+001	2.520962e+001
228447231	-1.367980e+001	2.318357e+001	-3.178029e-001	-6.270257e+001	-3.169215e-001	-6.271327e+001	-1.372805e+001	2.375907e+001
233759725	-1.355498e+001	2.169246e+001	-3.278970e-001	-6.416982e+001	-3.268065e-001	-6.415721e+001	-1.358608e+001	2.225268e+001
239072219	-1.343034e+001	2.028030e+001	-3.339112e-001	-6.558251e+001	-3.328050e-001	-6.559003e+001	-1.345367e+001	2.052684e+001
244384713	-1.327413e+001	1.895128e+001	-3.433593e-001	-6.706030e+001	-3.479382e-001	-6.703421e+001	-1.328438e+001	1.884483e+001
249697206	-1.314391e+001	1.733248e+001	-3.523810e-001	-6.851347e+001	-3.538935e-001	-6.846862e+001	-1.317317e+001	1.727599e+001
255009700	-1.302034e+001	1.591942e+001	-3.670690e-001	-6.997215e+001	-3.644692e-001	-6.990120e+001	-1.302561e+001	1.558396e+001
260322194	-1.288126e+001	1.433656e+001	-3.790838e-001	-7.138815e+001	-3.779001e-001	-7.135364e+001	-1.290423e+001	1.422539e+001
265634688	-1.276807e+001	1.309014e+001	-3.903074e-001	-7.282900e+001	-3.855334e-001	-7.275739e+001	-1.282171e+001	1.244305e+001
270947181	-1.265175e+001	1.146838e+001	-3.990750e-001	-7.423347e+001	-3.995333e-001	-7.418371e+001	-1.268726e+001	1.133606e+001
276259675	-1.252412e+001	1.023075e+001	-4.099816e-001	-7.564904e+001	-3.994009e-001	-7.559715e+001	-1.258632e+001	9.945144e+000
281572169	-1.242119e+001	8.548912e+000	-4.178234e-001	-7.706805e+001	-4.086216e-001	-7.704402e+001	-1.243844e+001	8.507574e+000
286884663	-1.231087e+001	6.986921e+000	-4.267340e-001	-7.848448e+001	-4.204907e-001	-7.847284e+001	-1.230942e+001	6.984845e+000
292197156	-1.214868e+001	5.531527e+000	-4.389422e-001	-7.991486e+001	-4.302281e-001	-7.993226e+001	-1.220529e+001	5.484309e+000
297509650	-1.209789e+001	3.945124e+000	-4.449473e-001	-8.132981e+001	-4.417641e-001	-8.134546e+001	-1.209392e+001	3.902958e+000
302822144	-1.194290e+001	2.410986e+000	-4.550003e-001	-8.275060e+001	-4.507383e-001	-8.276944e+001	-1.200575e+001	2.492221e+000
308134638	-1.185412e+001	9.381160e-001	-4.604216e-001	-8.419253e+001	-4.549743e-001	-8.419080e+001	-1.195604e+001	1.124150e+000
313447131	-1.177208e+001	-6.139421e-001	-4.712842e-001	-8.563012e+001	-4.671383e-001	-8.564306e+001	-1.182877e+001	-2.473601e-001
318759625	-1.167568e+001	-2.261706e+000	-4.790523e-001	-8.703946e+001	-4.772787e-001	-8.707788e+001	-1.174583e+001	-1.767771e+000
324072119	-1.160236e+001	-3.960548e+000	-4.861824e-001	-8.848252e+001	-4.812790e-001	-8.849290e+001	-1.170417e+001	-3.220231e+000
329384613	-1.147733e+001	-5.390031e+000	-4.978460e-001	-8.992426e+001	-4.925290e-001	-8.994218e+001	-1.164298e+001	-4.620052e+000
334697106	-1.142779e+001	-7.214997e+000	-5.069315e-001	-9.135019e+001	-4.997406e-001	-9.134295e+001	-1.158971e+001	-6.046777e+000
340009600	-1.137585e+001	-8.639327e+000	-5.161593e-001	-9.278329e+001	-5.086510e-001	-9.274989e+001	-1.152868e+001	-7.716745e+000
345322094	-1.130792e+001	-1.022181e+001	-5.215214e-001	-9.421295e+001	-5.149956e-001	-9.417920e+001	-1.149181e+001	-9.175000e+000
350634588	-1.122539e+001	-1.168758e+001	-5.338506e-001	-9.563962e+001	-5.217026e-001	-9.560268e+001	-1.141466e+001	-1.084833e+001
355947081	-1.118105e+001	-1.325560e+001	-5.430494e-001	-9.707222e+001	-5.270295e-001	-9.703004e+001	-1.135300e+001	-1.216019e+001
361259575	-1.111003e+001	-1.490457e+001	-5.491596e-001	-9.850618e+001	-5.336943e-001	-9.844637e+001	-1.128125e+001	-1.381272e+001
366572069	-1.105876e+001	-1.630873e+001	-5.597526e-001	-9.990890e+001	-5.431196e-001	-9.988303e+001	-1.123182e+001	-1.544470e+001
371884563	-1.102686e+001	-1.808752e+001	-5.671272e-001	-1.013362e+002	-5.497518e-001	-1.013039e+002	-1.116050e+001	-1.703586e+001
377197056	-1.095110e+001	-1.955442e+001	-5.767092e-001	-1.027771e+002	-5.559600e-001	-1.027399e+002	-1.109025e+001	-1.849327e+001
382509550	-1.089447e+001	-2.110907e+001	-5.837285e-001	-1.041947e+002	-5.635360e-001	-1.041670e+002	-1.103215e+001	-2.014781e+001
387822044	-1.084254e+001	-2.253557e+001	-5.914680e-001	-1.056397e+002	-5.705207e-001	-1.056011e+002	-1.096073e+001	-2.158234e+001
393134538	-1.081925e+001	-2.407506e+001	-5.973784e-001	-1.070676e+002	-5.798825e-001	-1.070256e+002	-1.088996e+001	-2.297137e+001
398447031	-1.079053e+001	-2.574454e+001	-5.989299e-001	-1.084866e+002	-5.867273e-001	-1.084657e+002	-1.084646e+001	-2.453586e+001
403759525	-1.074105e+001	-2.716811e+001	-6.054669e-001	-1.099405e+002	-5.966012e-001	-1.098756e+002	-1.077705e+001	-2.589398e+001
409072019	-1.071570e+001	-2.883473e+001	-6.094258e-001	-1.113682e+002	-6.015138e-001	-1.113370e+002	-1.073062e+001	-2.736581e+001
414384513	-1.068539e+001	-3.033500e+001	-6.155918e-001	-1.128143e+002	-6.072081e-001	-1.127484e+002	-1.070627e+001	-2.887724e+001
419697006	-1.065429e+001	-3.178706e+001	-6.231564e-001	-1.142538e+002	-6.146592e-001	-1.141811e+002	-1.064725e+001	-3.013732e+001
425009500	-1.063685e+001	-3.329962e+001	-6.248208e-001	-1.157017e+002	-6.170559e-001	-1.156198e+002	-1.062269e+001	-3.155162e+001
430321994	-1.059688e+001	-3.479469e+001	-6.308789e-001	-1.171662e+002	-6.261788e-001	-1.170750e+002	-1.059222e+001	-3.289878e+001
435634488	-1.059407e+001	-3.621067e+001	-6.362560e-001	-1.186227e+002	-6.284252e-001	-1.185506e+002	-1.057713e+001	-3.437342e+001
440946981	-1.055612e+001	-3.773329e+001	-6.422437e-001	-1.200725e+002	-6.311026e-001	-1.199836e+002	-1.056665e+001	-3.581574e+001
446259475	-1.053741e+001	-3.929121e+001	-6.484786e-001	-1.215517e+002	-6.385045e-001	-1.214399e+002	-1.056496e+001	-3.721445e+001
451571969	-1.052885e+001	-4.088778e+001	-6.572638e-001	-1.229925e+002	-6.373740e-001	-1.229101e+002	-1.057140e+001	-3.867012e+001
456884463	-1.053934e+001	-4.234482e+001	-6.586329e-001	-1.244672e+002	-6.409944e-001	-1.243594e+002	-1.059235e+001	-4.023963e+001
462196956	-1.050787e+001	-4.387549e+001	-6.662174e-001	-1.258926e+002	-6.483122e-001	-1.258100e+002	-1.060379e+001	-4.180836e+001
467509450	-1.050388e+001	-4.530332e+001	-6.740032e-001	-1.273708e+002	-6.477233e-001	-1.272685e+002	-1.063215e+001	-4.341851e+001
472821944	-1.050743e+001	-4.679406e+001	-6.796567e-001	-1.288042e+002	-6.487585e-001	-1.287458e+002	-1.064316e+001	-4.500531e+001
478134438	-1.052656e+001	-4.849557e+001	-6.801583e-001	-1.302667e+002	-6.505379e-001	-1.302052e+002	-1.064758e+001	-4.678215e+001
483446931	-1.051292e+001	-4.997112e+001	-6.838694e-001	-1.317118e+002	-6.486344e-001	-1.316853e+002	-1.066885e+001	-4.844519e+001
488759425	-1.052915e+001	-5.143215e+001	-6.858722e-001	-1.331592e+002	-6.518749e-001	-1.331598e+002	-1.067469e+001	-5.013961e+001
494071919	-1.053131e+001	-5.290291e+001	-6.899506e-001	-1.346124e+002	-6.535507e-001	-1.346231e+002	-1.069308e+001	-5.189826e+001
499384413	-1.054622e+001	-5.442246e+001	-6.897369e-001	-1.360645e+002	-6.559529e-001	-1.361174e+002	-1.070331e+001	-5.355296e+001
504696906	-1.056424e+001	-5.593501e+001	-6.898527e-001	-1.375701e+002	-6.550443e-001	-1.375706e+002	-1.070384e+001	-5.541506e+001
510009400	-1.059377e+001	-5.757788e+001	-6.917687e-001	-1.390201e+002	-6.578026e-001	-1.390476e+002	-1.071303e+001	-5.699612e+001
515321894	-1.061046e+001	-5.917338e+001	-6.894623e-001	-1.404790e+002	-6.571370e-001	-1.405322e+002	-1.072059e+001	-5.866782e+001
520634388	-1.061910e+001	-6.067014e+001	-6.884635e-001	-1.419666e+002	-6.572183e-001	-1.420060e+002	-1.071601e+001	-6.024335e+001
525946881	-1.064149e+001	-6.223946e+001	-6.902546e-001	-1.434436e+002	-6.575565e-001	-1.434759e+002	-1.073310e+001	-6.171716e+001
531259375	-1.068772e+001	-6.389842e+001	-6.869545e-001	-1.449501e+002	-6.568507e-001	-1.449673e+002	-1.077353e+001	-6.325140e+001
536571869	-1.072872e+001	-6.558284e+001	-6.845500e-001	-1.464527e+002	-6.541785e-001	-1.464700e+002	-1.080072e+001	-6.483909e+001
541884363	-1.077701e+001	-6.707754e+001	-6.832543e-001	-1.479487e+002	-6.528135e-001	-1.479759e+002	-1.081774e+001	-6.631163e+001
547196856	-1.082194e+001	-6.882494e+001	-6.845395e-001	-1.494569e+002	-6.509507e-001	-1.495058e+002	-1.087188e+001	-6.771118e+001
552509350	-1.087372e+001	-7.038627e+001	-6.845458e-001	-1.509645e+002	-6.501280e-001	-1.510260e+002	-1.091879e+001	-6.928421e+001
557821844	-1.094750e+001	-7.204943e+001	-6.842143e-001	-1.525010e+002	-6.525512e-001	-1.525413e+002	-1.098940e+001	-7.074296e+001
563134338	-1.101429e+001	-7.378252e+001	-6.828842e-001	-1.539858e+002	-6.466958e-001	-1.540455e+002	-1.106787e+001	-7.235533e+001
568446831	-1.108737e+001	-7.542909e+001	-6.799279e-001	-1.555259e+002	-6.456526e-001	-1.555669e+002	-1.114955e+001	-7.379941e+001
573759325	-1.117960e+001	-7.703432e+001	-6.765625e-001	-1.570041e+002	-6.412739e-001	-1.571224e+002	-1.125678e+001	-7.526356e+001
579071819	-1.126262e+001	-7.868770e+001	-6.660771e-001	-1.585411e+002	-6.348126e-001	-1.586734e+002	-1.133276e+001	-7.683882e+001
584384313	-1.135281e+001	-8.027068e+001	-6.610380e-001	-1.600747e+002	-6.297477e-001	-1.602323e+002	-1.142621e+001	-7.839226e+001
589696806	-1.145128e+001	-8.179941e+001	-6.520985e-001	-1.616206e+002	-6.227988e-001	-1.617751e+002	-1.151613e+001	-8.030862e+001
595009300	-1.154204e+001	-8.348243e+001	-6.439341e-001	-1.631908e+002	-6.160585e-001	-1.633487e+002	-1.160381e+001	-8.194193e+001
600321794	-1.164316e+001	-8.499544e+001	-6.394321e-001	-1.647439e+002	-6.130250e-001	-1.649329e+002	-1.169514e+001	-8.370424e+001
605634288	-1.175612e+001	-8.661693e+001	-6.294799e-001	-1.663359e+002	-6.095763e-001	-1.665243e+002	-1.178153e+001	-8.552514e+001
610946781	-1.185311e+001	-8.821690e+001	-6.244469e-001	-1.679077e+002	-6.075012e-001	-1.681039e+002	-1.187538e+001	-8.727974e+001
616259275	-1.196244e+001	-8.979512e+001	-6.162380e-001	-1.695286e+002	-6.037394e-001	-1.696726e+002	-1.198050e+001	-8.895425e+001
621571769	-1.206145e+001	-9.162242e+001	-6.131817e-001	-1.711174e+002	-5.999542e-001	-1.712590e+002	-1.207467e+001	-9.059955e+001
626884263	-1.217428e+001	-9.325159e+001	-6.051064e-001	-1.727507e+002	-5.976605e-001	-1.728646e+002	-1.218493e+001	-9.233903e+001
632196756	-1.229751e+001	-9.499195e+001	-6.004261e-001	-1.743615e+002	-5.938068e-001	-1.744557e+002	-1.226993e+001	-9.372529e+001
637509250	-1.242770e+001	-9.681436e+001	-5.955589e-001	-1.759816e+002	-5.917858e-001	-1.760629e+002	-1.240974e+001	-9.545849e+001
642821744	-1.256537e+001	-9.865961e+001	-5.935204e-001	-1.776367e+002	-5.900452e-001	-1.776839e+002	-1.254402e+001	-9.691723e+001
648134238	-1.272594e+001	-1.005521e+002	-5.882372e-001	-1.792418e+002	-5.859469e-001	-1.793234e+002	-1.266308e+001	-9.851915e+001
653446731	-1.287546e+001	-1.024848e+002	-5.863386e-001	1.791229e+002	-5.842961e-001	1.790587e+002	-1.281226e+001	-9.998509e+001
658759225	-1.306456e+001	-1.044335e+002	-5.822712e-001	1.774676e+002	-5.747955e-001	1.773827e+002	-1.301067e+001	-1.013974e+002
664071719	-1.325649e+001	-1.063774e+002	-5.756055e-001	1.758205e+002	-5.706398e-001	1.757303e+002	-1.320275e+001	-1.028476e+002
669384213	-1.345805e+001	-1.084627e+002	-5.709607e-001	1.741633e+002	-5.653358e-001	1.740605e+002	-1.340877e+001	-1.043123e+002
674696706	-1.369624e+001	-1.104319e+002	-5.627768e-001	1.725103e+002	-5.606624e-001	1.723788e+002	-1.366102e+001	-1.058288e+002
680009200	-1.395546e+001	-1.122878e+002	-5.566860e-001	1.708458e+002	-5.572372e-001	1.706990e+002	-1.388133e+001	-1.074280e+002
685321694	-1.420547e+001	-1.142692e+002	-5.503197e-001	1.691454e+002	-5.548916e-001	1.689749e+002	-1.415562e+001	-1.088705e+002
690634188	-1.449642e+001	-1.162847e+002	-5.391204e-001	1.674568e+002	-5.449612e-001	1.672825e+002	-1.444615e+001	-1.105084e+002
695946681	-1.480593e+001	-1.180659e+002	-5.295080e-001	1.657294e+002	-5.406145e-001	1.655483e+002	-1.471769e+001	-1.121822e+002
701259175	-1.510447e+001	-1.198615e+002	-5.231181e-001	1.639753e+002	-5.345686e-001	1.638376e+002	-1.505941e+001	-1.136672e+002
706571669	-1.544399e+001	-1.217102e+002	-5.148402e-001	1.622493e+002	-5.302357e-001	1.621065e+002	-1.536745e+001	-1.153985e+002
711884163	-1.581219e+001	-1.233953e+002	-5.095004e-001	1.604641e+002	-5.253419e-001	1.603523e+002	-1.571029e+001	-1.171254e+002
717196656	-1.615558e+001	-1.254357e+002	-5.037669e-001	1.587038e+002	-5.206057e-001	1.586227e+002	-1.608296e+001	-1.185146e+002
722509150	-1.652964e+001	-1.272181e+002	-4.994649e-001	1.568929e+002	-5.107606e-001	1.568704e+002	-1.643295e+001	-1.198407e+002
727821644	-1.694115e+001	-1.289200e+002	-4.982748e-001	1.550789e+002	-5.054780e-001	1.550648e+002	-1.680991e+001	-1.216088e+002
733134138	-1.736180e+001	-1.311111e+002	-4.957234e-001	1.532885e+002	-5.007072e-001	1.533209e+002	-1.730419e+001	-1.231205e+002
738446631	-1.785690e+001	-1.331389e+002	-4.970150e-001	1.514702e+002	-4.955373e-001	1.515161e+002	-1.776049e+001	-1.243640e+002
743759125	-1.836205e+001	-1.351345e+002	-4.971416e-001	1.496596e+002	-4.918621e-001	1.497175e+002	-1.832079e+001	-1.253709e+002
749071619	-1.888921e+001	-1.374662e+002	-4.994800e-001	1.478301e+002	-4.905801e-001	1.479104e+002	-1.887932e+001	-1.264880e+002
754384113	-1.954391e+001	-1.397340e+002	-5.004374e-001	1.460494e+002	-4.859321e-001	1.460758e+002	-1.954397e+001	-1.277398e+002
759696606	-2.026050e+001	-1.416362e+002	-4.990107e-001	1.442029e+002	-4.854471e-001	1.442284e+002	-2.023904e+001	-1.283606e+002
765009100	-2.109724e+001	-1.441625e+002	-4.970764e-001	1.423537e+002	-4.795069e-001	1.423663e+002	-2.104724e+001	-1.293072e+002
770321594	-2.197538e+001	-1.465739e+002	-4.928774e-001	1.404668e+002	-4.775927e-001	1.404825e+002	-2.197630e+001	-1.300330e+002
775634088	-2.320445e+001	-1.495467e+002	-4.889948e-001	1.385843e+002	-4.760826e-001	1.385834e+002	-2.304415e+001	-1.308325e+002
780946581	-2.442690e+001	-1.520676e+002	-4.909902e-001	1.366920e+002	-4.758022e-001	1.366575e+002	-2.425426e+001	-1.309837e+002
786259075	-2.602154e+001	-1.550492e+002	-4.903776e-001	1.347526e+002	-4.764274e-001	1.347176e+002	-2.567616e+001	-1.310689e+002
791571569	-2.799237e+001	-1.580984e+002	-4.904687e-001	1.328041e+002	-4.782635e-001	1.327721e+002	-2.737469e+001	-1.289328e+002
796884063	-3.044598e+001	-1.605837e+002	-4.889273e-001	1.308253e+002	-4.840974e-001	1.307919e+002	-2.930703e+001	-1.275123e+002
802196556	-3.469392e+001	-1.652390e+002	-4.954023e-001	1.288411e+002	-4.877324e-001	1.288123e+002	-3.229466e+001	-1.198112e+002
