!Agilent Technologies,E5071C,MY46104870,A.11.22
!Date: Sun Jan 01 02:04:03 2017
!Data & Calibration Information:
!Freq	S11:SOLT2(ON)	S21:SOLT2(ON)	S12:SOLT2(ON)	S22:SOLT2(ON)
!PortZ  Port1:50+j0    Port2:50+j0
!Above PortZ is port z conversion or system Z0 setting when saving the data.
!When reading, reference impedance value at option line is always used.
# Hz S dB R 50
10000	-5.464192e+001	-2.177711e+001	1.717586e-002	1.823582e-002	3.003810e-003	2.247139e-002	-4.583193e+001	4.751457e+001
5322494	-5.604846e+001	-6.721176e+001	-1.583296e-002	-2.130779e+000	-1.666589e-002	-2.145077e+000	-5.570794e+001	-8.402587e+001
10634988	-4.934088e+001	-7.878090e+001	-1.774283e-002	-4.227905e+000	-1.916618e-002	-4.248950e+000	-4.896586e+001	-8.152488e+001
15947481	-4.597536e+001	-8.783600e+001	-2.474745e-002	-6.323619e+000	-2.381915e-002	-6.327133e+000	-4.565345e+001	-8.939191e+001
21259975	-4.326091e+001	-9.422524e+001	-2.907777e-002	-8.420510e+000	-3.047454e-002	-8.434136e+000	-4.266998e+001	-9.418464e+001
26572469	-4.110979e+001	-1.005195e+002	-3.639773e-002	-1.050834e+001	-3.694599e-002	-1.050897e+001	-4.066296e+001	-9.526281e+001
31884963	-3.944749e+001	-1.055407e+002	-4.034797e-002	-1.258635e+001	-4.029142e-002	-1.257226e+001	-3.938190e+001	-1.004151e+002
37197456	-3.803459e+001	-1.080084e+002	-4.528663e-002	-1.466553e+001	-4.474309e-002	-1.466307e+001	-3.797591e+001	-1.005179e+002
42509950	-3.719220e+001	-1.144775e+002	-4.968695e-002	-1.672304e+001	-4.885614e-002	-1.672085e+001	-3.708310e+001	-1.044124e+002
47822444	-3.623430e+001	-1.165041e+002	-5.340481e-002	-1.880812e+001	-5.024067e-002	-1.881457e+001	-3.596408e+001	-1.067123e+002
53134938	-3.515411e+001	-1.192665e+002	-5.775858e-002	-2.086582e+001	-5.859764e-002	-2.086746e+001	-3.516376e+001	-1.083964e+002
58447431	-3.455407e+001	-1.228830e+002	-6.215165e-002	-2.294636e+001	-6.077768e-002	-2.292599e+001	-3.443815e+001	-1.096247e+002
63759925	-3.392491e+001	-1.257332e+002	-6.687782e-002	-2.501109e+001	-6.413981e-002	-2.500619e+001	-3.371911e+001	-1.131446e+002
69072419	-3.323366e+001	-1.294593e+002	-6.863076e-002	-2.706064e+001	-7.014649e-002	-2.707133e+001	-3.303160e+001	-1.135975e+002
74384913	-3.254633e+001	-1.314150e+002	-7.665973e-002	-2.913257e+001	-7.460868e-002	-2.914405e+001	-3.265371e+001	-1.163495e+002
79697406	-3.200008e+001	-1.338666e+002	-8.083227e-002	-3.120827e+001	-8.139446e-002	-3.122054e+001	-3.199776e+001	-1.187140e+002
85009900	-3.138485e+001	-1.371110e+002	-8.410971e-002	-3.329213e+001	-8.444039e-002	-3.329676e+001	-3.152188e+001	-1.212121e+002
90322394	-3.099280e+001	-1.386080e+002	-8.957619e-002	-3.539804e+001	-8.463392e-002	-3.538791e+001	-3.115508e+001	-1.240224e+002
95634888	-3.019350e+001	-1.384152e+002	-1.013074e-001	-3.752994e+001	-9.996575e-002	-3.755339e+001	-3.070889e+001	-1.291399e+002
100947381	-2.944802e+001	-1.524299e+002	-1.220274e-001	-3.913780e+001	-1.188926e-001	-3.913380e+001	-3.157217e+001	-1.168666e+002
106259875	-2.967066e+001	-1.496624e+002	-1.048941e-001	-4.138495e+001	-1.002062e-001	-4.138852e+001	-3.030109e+001	-1.246005e+002
111572369	-2.924533e+001	-1.517177e+002	-1.046743e-001	-4.348171e+001	-1.026308e-001	-4.349771e+001	-2.966462e+001	-1.283575e+002
116884863	-2.872431e+001	-1.539225e+002	-1.120515e-001	-4.555359e+001	-1.069748e-001	-4.557700e+001	-2.935620e+001	-1.311232e+002
122197356	-2.833767e+001	-1.550245e+002	-1.153060e-001	-4.764274e+001	-1.093305e-001	-4.763635e+001	-2.894890e+001	-1.349009e+002
127509850	-2.787524e+001	-1.583721e+002	-1.184108e-001	-4.969025e+001	-1.152367e-001	-4.969987e+001	-2.864873e+001	-1.373138e+002
132822344	-2.765857e+001	-1.594590e+002	-1.237654e-001	-5.176540e+001	-1.205452e-001	-5.176260e+001	-2.825293e+001	-1.385589e+002
138134838	-2.710575e+001	-1.617691e+002	-1.287036e-001	-5.382383e+001	-1.231844e-001	-5.382536e+001	-2.809768e+001	-1.416403e+002
143447331	-2.664708e+001	-1.646675e+002	-1.291038e-001	-5.591230e+001	-1.266529e-001	-5.591724e+001	-2.752353e+001	-1.442889e+002
148759825	-2.636048e+001	-1.668794e+002	-1.383151e-001	-5.801622e+001	-1.334662e-001	-5.803696e+001	-2.714595e+001	-1.479460e+002
154072319	-2.537221e+001	-1.714917e+002	-1.725355e-001	-6.025118e+001	-1.695167e-001	-6.028666e+001	-2.648795e+001	-1.543410e+002
159384813	-2.669543e+001	-1.776900e+002	-1.531121e-001	-6.177729e+001	-1.523359e-001	-6.179630e+001	-2.773726e+001	-1.500400e+002
164697306	-2.644460e+001	-1.774516e+002	-1.455767e-001	-6.396513e+001	-1.433167e-001	-6.399894e+001	-2.713262e+001	-1.526116e+002
170009800	-2.609559e+001	1.799855e+002	-1.515015e-001	-6.606042e+001	-1.474319e-001	-6.607862e+001	-2.657215e+001	-1.541559e+002
175322294	-2.599671e+001	1.777259e+002	-1.497173e-001	-6.814445e+001	-1.523925e-001	-6.815338e+001	-2.639949e+001	-1.559250e+002
180634788	-2.585937e+001	1.761302e+002	-1.553332e-001	-7.021698e+001	-1.567836e-001	-7.022628e+001	-2.620335e+001	-1.584599e+002
185947281	-2.580671e+001	1.737205e+002	-1.599960e-001	-7.228311e+001	-1.620755e-001	-7.230986e+001	-2.591797e+001	-1.603623e+002
191259775	-2.564906e+001	1.715945e+002	-1.634146e-001	-7.436737e+001	-1.675838e-001	-7.437860e+001	-2.579516e+001	-1.623358e+002
196572269	-2.546970e+001	1.694304e+002	-1.675533e-001	-7.641859e+001	-1.677325e-001	-7.642693e+001	-2.577830e+001	-1.642371e+002
201884763	-2.544814e+001	1.674854e+002	-1.681643e-001	-7.849323e+001	-1.726430e-001	-7.850429e+001	-2.556115e+001	-1.654724e+002
207197256	-2.529769e+001	1.647578e+002	-1.731306e-001	-8.054382e+001	-1.744117e-001	-8.056701e+001	-2.542689e+001	-1.672583e+002
212509750	-2.523179e+001	1.631750e+002	-1.768572e-001	-8.266540e+001	-1.783715e-001	-8.264047e+001	-2.538117e+001	-1.690388e+002
217822244	-2.521906e+001	1.604118e+002	-1.810709e-001	-8.470830e+001	-1.833420e-001	-8.472569e+001	-2.533574e+001	-1.717087e+002
223134738	-2.526540e+001	1.581548e+002	-1.877578e-001	-8.679530e+001	-1.922599e-001	-8.678674e+001	-2.523310e+001	-1.727162e+002
228447231	-2.516485e+001	1.554615e+002	-1.967040e-001	-8.882873e+001	-1.987021e-001	-8.883856e+001	-2.516220e+001	-1.748115e+002
233759725	-2.512522e+001	1.533220e+002	-2.008043e-001	-9.090719e+001	-2.030834e-001	-9.090984e+001	-2.502762e+001	-1.771564e+002
239072219	-2.510615e+001	1.507860e+002	-2.076807e-001	-9.296884e+001	-2.072100e-001	-9.298258e+001	-2.500937e+001	-1.786757e+002
244384713	-2.528059e+001	1.478381e+002	-2.150300e-001	-9.500592e+001	-2.180417e-001	-9.501637e+001	-2.519494e+001	1.790372e+002
249697206	-2.523875e+001	1.460869e+002	-2.136834e-001	-9.705115e+001	-2.140285e-001	-9.707908e+001	-2.525633e+001	1.764521e+002
255009700	-2.534773e+001	1.434737e+002	-2.161791e-001	-9.917175e+001	-2.159726e-001	-9.915027e+001	-2.538541e+001	1.748065e+002
260322194	-2.543310e+001	1.410292e+002	-2.264322e-001	-1.012130e+002	-2.248380e-001	-1.012279e+002	-2.543338e+001	1.713449e+002
265634688	-2.549679e+001	1.381889e+002	-2.301544e-001	-1.032479e+002	-2.271185e-001	-1.032542e+002	-2.551985e+001	1.686589e+002
270947181	-2.554470e+001	1.361757e+002	-2.239253e-001	-1.053068e+002	-2.265572e-001	-1.052950e+002	-2.591243e+001	1.654012e+002
276259675	-2.569346e+001	1.332160e+002	-2.231450e-001	-1.073729e+002	-2.231344e-001	-1.073861e+002	-2.594816e+001	1.635207e+002
281572169	-2.577498e+001	1.320745e+002	-2.275119e-001	-1.094614e+002	-2.262563e-001	-1.094531e+002	-2.616039e+001	1.611541e+002
286884663	-2.587233e+001	1.302202e+002	-2.276537e-001	-1.115534e+002	-2.272323e-001	-1.115386e+002	-2.628263e+001	1.596254e+002
292197156	-2.618526e+001	1.270724e+002	-2.288329e-001	-1.136527e+002	-2.299997e-001	-1.136691e+002	-2.637047e+001	1.569672e+002
297509650	-2.607517e+001	1.252748e+002	-2.325042e-001	-1.157407e+002	-2.328713e-001	-1.157425e+002	-2.647865e+001	1.563028e+002
302822144	-2.636075e+001	1.228995e+002	-2.349132e-001	-1.178354e+002	-2.355968e-001	-1.178451e+002	-2.651479e+001	1.535568e+002
308134638	-2.637092e+001	1.194687e+002	-2.368923e-001	-1.199298e+002	-2.422106e-001	-1.199362e+002	-2.637427e+001	1.516188e+002
313447131	-2.645677e+001	1.169139e+002	-2.419084e-001	-1.220254e+002	-2.399883e-001	-1.220398e+002	-2.656100e+001	1.497825e+002
318759625	-2.665138e+001	1.145626e+002	-2.440876e-001	-1.241272e+002	-2.469659e-001	-1.241497e+002	-2.673110e+001	1.486655e+002
324072119	-2.678768e+001	1.122402e+002	-2.497082e-001	-1.262330e+002	-2.445246e-001	-1.262409e+002	-2.666809e+001	1.477886e+002
329384613	-2.708868e+001	1.072544e+002	-2.508690e-001	-1.283397e+002	-2.527871e-001	-1.283549e+002	-2.675516e+001	1.463970e+002
334697106	-2.723441e+001	1.053669e+002	-2.551053e-001	-1.304253e+002	-2.570119e-001	-1.304497e+002	-2.700649e+001	1.452166e+002
340009600	-2.756133e+001	1.019764e+002	-2.599963e-001	-1.325305e+002	-2.629493e-001	-1.325603e+002	-2.714134e+001	1.454098e+002
345322094	-2.782704e+001	9.884354e+001	-2.628834e-001	-1.346499e+002	-2.672504e-001	-1.346470e+002	-2.744936e+001	1.441570e+002
350634588	-2.809286e+001	9.462347e+001	-2.660946e-001	-1.367439e+002	-2.694772e-001	-1.367651e+002	-2.767556e+001	1.443925e+002
355947081	-2.846792e+001	9.222971e+001	-2.731580e-001	-1.388434e+002	-2.768343e-001	-1.388697e+002	-2.797430e+001	1.425089e+002
361259575	-2.888717e+001	8.958135e+001	-2.745464e-001	-1.409655e+002	-2.815220e-001	-1.409727e+002	-2.832276e+001	1.422785e+002
366572069	-2.939121e+001	8.668962e+001	-2.814306e-001	-1.430641e+002	-2.861508e-001	-1.430718e+002	-2.869919e+001	1.408360e+002
371884563	-2.972137e+001	8.587118e+001	-2.844412e-001	-1.451578e+002	-2.877942e-001	-1.451785e+002	-2.909613e+001	1.399529e+002
377197056	-3.007664e+001	8.217941e+001	-2.878577e-001	-1.473147e+002	-2.903777e-001	-1.473070e+002	-2.964625e+001	1.392073e+002
382509550	-3.055408e+001	7.964860e+001	-2.915783e-001	-1.494247e+002	-2.935433e-001	-1.494152e+002	-3.009646e+001	1.385803e+002
387822044	-3.104902e+001	7.649732e+001	-2.974753e-001	-1.515491e+002	-3.021135e-001	-1.515372e+002	-3.051867e+001	1.377896e+002
393134538	-3.139311e+001	7.397650e+001	-2.996119e-001	-1.536682e+002	-3.026290e-001	-1.536309e+002	-3.079027e+001	1.366469e+002
398447031	-3.172109e+001	7.189157e+001	-3.014018e-001	-1.557782e+002	-3.071648e-001	-1.557778e+002	-3.137235e+001	1.361421e+002
403759525	-3.206754e+001	6.861233e+001	-3.077061e-001	-1.579045e+002	-3.101539e-001	-1.578913e+002	-3.193151e+001	1.357744e+002
409072019	-3.269098e+001	6.553012e+001	-3.087381e-001	-1.600428e+002	-3.141708e-001	-1.600465e+002	-3.250343e+001	1.361296e+002
414384513	-3.301946e+001	6.038411e+001	-3.125368e-001	-1.621746e+002	-3.175402e-001	-1.621822e+002	-3.286966e+001	1.355491e+002
419697006	-3.353667e+001	5.610913e+001	-3.139545e-001	-1.643363e+002	-3.153437e-001	-1.643183e+002	-3.355245e+001	1.379402e+002
425009500	-3.424521e+001	4.961568e+001	-3.192125e-001	-1.664774e+002	-3.228780e-001	-1.664871e+002	-3.376227e+001	1.389152e+002
430321994	-3.523745e+001	4.142355e+001	-3.229877e-001	-1.686279e+002	-3.269717e-001	-1.686378e+002	-3.452296e+001	1.442008e+002
435634488	-3.610304e+001	3.481905e+001	-3.282495e-001	-1.707826e+002	-3.326373e-001	-1.708004e+002	-3.468168e+001	1.494593e+002
440946981	-3.735848e+001	2.453105e+001	-3.325155e-001	-1.729378e+002	-3.355706e-001	-1.729674e+002	-3.516360e+001	1.552092e+002
446259475	-3.842545e+001	1.150150e+001	-3.405482e-001	-1.751106e+002	-3.430958e-001	-1.751301e+002	-3.540189e+001	1.604039e+002
451571969	-3.958938e+001	-3.547162e+000	-3.515265e-001	-1.772698e+002	-3.470539e-001	-1.772766e+002	-3.565045e+001	1.677649e+002
456884463	-4.057767e+001	-2.220264e+001	-3.587194e-001	-1.794351e+002	-3.601113e-001	-1.794351e+002	-3.535988e+001	1.760650e+002
462196956	-4.163291e+001	-4.545875e+001	-3.655563e-001	1.784046e+002	-3.662043e-001	1.784260e+002	-3.478559e+001	-1.793002e+002
467509450	-4.120348e+001	-7.240014e+001	-3.743958e-001	1.762848e+002	-3.743008e-001	1.762918e+002	-3.475184e+001	-1.748987e+002
472821944	-4.021337e+001	-8.794602e+001	-3.820121e-001	1.742013e+002	-3.809678e-001	1.741816e+002	-3.469644e+001	-1.699968e+002
478134438	-3.926862e+001	-9.927893e+001	-3.811649e-001	1.720637e+002	-3.811463e-001	1.720509e+002	-3.470897e+001	-1.634314e+002
483446931	-3.794779e+001	-1.075502e+002	-3.775363e-001	1.698938e+002	-3.756617e-001	1.698919e+002	-3.430218e+001	-1.568101e+002
488759425	-3.647495e+001	-1.144129e+002	-3.775904e-001	1.677126e+002	-3.738989e-001	1.676968e+002	-3.377079e+001	-1.494431e+002
494071919	-3.502959e+001	-1.198190e+002	-3.772674e-001	1.655180e+002	-3.767704e-001	1.655039e+002	-3.284893e+001	-1.437655e+002
499384413	-3.368519e+001	-1.239088e+002	-3.779775e-001	1.633293e+002	-3.773005e-001	1.632913e+002	-3.201541e+001	-1.405377e+002
504696906	-3.255832e+001	-1.291792e+002	-3.790147e-001	1.610944e+002	-3.803833e-001	1.610698e+002	-3.112674e+001	-1.386215e+002
510009400	-3.145759e+001	-1.332183e+002	-3.844309e-001	1.588857e+002	-3.828261e-001	1.588426e+002	-3.033493e+001	-1.377488e+002
515321894	-3.056889e+001	-1.359474e+002	-3.904992e-001	1.566840e+002	-3.864612e-001	1.566437e+002	-2.943802e+001	-1.372765e+002
520634388	-2.958581e+001	-1.400448e+002	-3.933071e-001	1.544511e+002	-3.904983e-001	1.544241e+002	-2.882031e+001	-1.381240e+002
525946881	-2.873356e+001	-1.433730e+002	-3.955375e-001	1.522344e+002	-3.930142e-001	1.521741e+002	-2.801531e+001	-1.389930e+002
531259375	-2.800152e+001	-1.462313e+002	-4.041213e-001	1.499927e+002	-3.982029e-001	1.499369e+002	-2.737431e+001	-1.397867e+002
536571869	-2.718306e+001	-1.494919e+002	-4.088879e-001	1.477646e+002	-4.039113e-001	1.476984e+002	-2.659213e+001	-1.405230e+002
541884363	-2.648479e+001	-1.519045e+002	-4.130059e-001	1.455157e+002	-4.109094e-001	1.454720e+002	-2.613292e+001	-1.418139e+002
547196856	-2.590039e+001	-1.551475e+002	-4.194333e-001	1.432845e+002	-4.191138e-001	1.432121e+002	-2.536639e+001	-1.430533e+002
552509350	-2.525622e+001	-1.579311e+002	-4.281856e-001	1.410650e+002	-4.251708e-001	1.409513e+002	-2.489959e+001	-1.443690e+002
557821844	-2.464522e+001	-1.615165e+002	-4.365548e-001	1.387900e+002	-4.291472e-001	1.387086e+002	-2.441257e+001	-1.465799e+002
563134338	-2.416439e+001	-1.640512e+002	-4.392450e-001	1.365454e+002	-4.401041e-001	1.364539e+002	-2.389137e+001	-1.473001e+002
568446831	-2.363721e+001	-1.666274e+002	-4.465492e-001	1.342760e+002	-4.476148e-001	1.341953e+002	-2.336967e+001	-1.493489e+002
573759325	-2.323368e+001	-1.693144e+002	-4.519378e-001	1.320250e+002	-4.548031e-001	1.319068e+002	-2.297920e+001	-1.507074e+002
579071819	-2.272218e+001	-1.716481e+002	-4.573000e-001	1.297546e+002	-4.607560e-001	1.296362e+002	-2.250275e+001	-1.527619e+002
584384313	-2.230589e+001	-1.740391e+002	-4.658757e-001	1.274661e+002	-4.710205e-001	1.273556e+002	-2.210033e+001	-1.539798e+002
589696806	-2.181766e+001	-1.765226e+002	-4.735988e-001	1.251815e+002	-4.799454e-001	1.250890e+002	-2.171875e+001	-1.554368e+002
595009300	-2.154019e+001	-1.784012e+002	-4.816007e-001	1.228752e+002	-4.868283e-001	1.227881e+002	-2.137715e+001	-1.576278e+002
600321794	-2.110567e+001	1.788328e+002	-4.882298e-001	1.205792e+002	-4.948353e-001	1.204921e+002	-2.101876e+001	-1.603145e+002
605634288	-2.067215e+001	1.767839e+002	-4.945387e-001	1.182677e+002	-5.046828e-001	1.181726e+002	-2.061854e+001	-1.622697e+002
610946781	-2.028461e+001	1.743555e+002	-5.057492e-001	1.159734e+002	-5.126913e-001	1.158771e+002	-2.032660e+001	-1.646028e+002
616259275	-1.987497e+001	1.723316e+002	-5.122544e-001	1.136207e+002	-5.219714e-001	1.135642e+002	-2.004912e+001	-1.668876e+002
621571769	-1.950143e+001	1.698704e+002	-5.253791e-001	1.112971e+002	-5.320110e-001	1.112385e+002	-1.972008e+001	-1.693960e+002
626884263	-1.914179e+001	1.678035e+002	-5.351386e-001	1.089728e+002	-5.422160e-001	1.089006e+002	-1.933226e+001	-1.720010e+002
632196756	-1.879422e+001	1.649350e+002	-5.441702e-001	1.066077e+002	-5.508008e-001	1.065727e+002	-1.900859e+001	-1.743326e+002
637509250	-1.849808e+001	1.627507e+002	-5.527905e-001	1.042641e+002	-5.610420e-001	1.042281e+002	-1.872743e+001	-1.768986e+002
642821744	-1.810737e+001	1.601716e+002	-5.685165e-001	1.019178e+002	-5.720659e-001	1.018715e+002	-1.834985e+001	-1.794459e+002
648134238	-1.785509e+001	1.573743e+002	-5.784357e-001	9.954358e+001	-5.855758e-001	9.951496e+001	-1.804547e+001	1.782799e+002
653446731	-1.751918e+001	1.550698e+002	-5.913094e-001	9.721213e+001	-5.964733e-001	9.717006e+001	-1.770713e+001	1.759583e+002
658759225	-1.722104e+001	1.522668e+002	-6.025724e-001	9.481386e+001	-6.075993e-001	9.477619e+001	-1.733248e+001	1.735837e+002
664071719	-1.695735e+001	1.499096e+002	-6.135906e-001	9.244227e+001	-6.234403e-001	9.240424e+001	-1.703770e+001	1.713218e+002
669384213	-1.662711e+001	1.477506e+002	-6.261751e-001	9.005743e+001	-6.342908e-001	9.001413e+001	-1.668619e+001	1.690309e+002
674696706	-1.645333e+001	1.451409e+002	-6.340550e-001	8.765208e+001	-6.491967e-001	8.762289e+001	-1.637977e+001	1.668544e+002
680009200	-1.619061e+001	1.425952e+002	-6.443003e-001	8.521850e+001	-6.664191e-001	8.522653e+001	-1.603867e+001	1.645584e+002
685321694	-1.589609e+001	1.403374e+002	-6.609493e-001	8.278312e+001	-6.828124e-001	8.279917e+001	-1.570562e+001	1.626861e+002
690634188	-1.561368e+001	1.380358e+002	-6.707836e-001	8.035703e+001	-6.966451e-001	8.037700e+001	-1.547577e+001	1.604075e+002
695946681	-1.535532e+001	1.358425e+002	-6.883014e-001	7.788618e+001	-7.142318e-001	7.795091e+001	-1.513501e+001	1.582196e+002
701259175	-1.509233e+001	1.335488e+002	-7.038686e-001	7.540672e+001	-7.285083e-001	7.546515e+001	-1.491464e+001	1.563141e+002
706571669	-1.482819e+001	1.310309e+002	-7.208219e-001	7.291043e+001	-7.481968e-001	7.301419e+001	-1.463749e+001	1.540175e+002
711884163	-1.456017e+001	1.286880e+002	-7.468368e-001	7.039455e+001	-7.667261e-001	7.051416e+001	-1.438581e+001	1.520453e+002
717196656	-1.427796e+001	1.262548e+002	-7.690431e-001	6.791786e+001	-7.881171e-001	6.803898e+001	-1.413187e+001	1.496863e+002
722509150	-1.398135e+001	1.238633e+002	-7.951762e-001	6.541214e+001	-8.041015e-001	6.552118e+001	-1.390479e+001	1.475523e+002
727821644	-1.369197e+001	1.215647e+002	-8.226792e-001	6.292049e+001	-8.230959e-001	6.299050e+001	-1.370221e+001	1.451351e+002
733134138	-1.344413e+001	1.188838e+002	-8.470894e-001	6.043046e+001	-8.447364e-001	6.046661e+001	-1.348229e+001	1.427933e+002
738446631	-1.317643e+001	1.163035e+002	-8.744661e-001	5.791364e+001	-8.687899e-001	5.789412e+001	-1.327555e+001	1.402212e+002
743759125	-1.291669e+001	1.137655e+002	-9.027548e-001	5.541429e+001	-8.905352e-001	5.534037e+001	-1.302560e+001	1.375874e+002
749071619	-1.267164e+001	1.113291e+002	-9.271994e-001	5.287849e+001	-9.209830e-001	5.276931e+001	-1.280669e+001	1.349365e+002
754384113	-1.244376e+001	1.087212e+002	-9.552457e-001	5.039128e+001	-9.518689e-001	5.016861e+001	-1.257669e+001	1.321391e+002
759696606	-1.220322e+001	1.064350e+002	-9.805897e-001	4.783015e+001	-9.826180e-001	4.760435e+001	-1.235173e+001	1.290788e+002
765009100	-1.196707e+001	1.039844e+002	-1.006145e+000	4.524535e+001	-1.014787e+000	4.501380e+001	-1.208679e+001	1.260226e+002
770321594	-1.172039e+001	1.016893e+002	-1.034546e+000	4.266197e+001	-1.049289e+000	4.242400e+001	-1.185024e+001	1.230934e+002
775634088	-1.149738e+001	9.937963e+001	-1.061795e+000	4.002804e+001	-1.083841e+000	3.982649e+001	-1.159533e+001	1.199219e+002
780946581	-1.124192e+001	9.715528e+001	-1.092140e+000	3.740936e+001	-1.118426e+000	3.722720e+001	-1.134640e+001	1.169747e+002
786259075	-1.097000e+001	9.486326e+001	-1.127729e+000	3.473676e+001	-1.151113e+000	3.460935e+001	-1.109247e+001	1.138720e+002
791571569	-1.068616e+001	9.251494e+001	-1.167122e+000	3.205354e+001	-1.193968e+000	3.196063e+001	-1.083091e+001	1.111647e+002
796884063	-1.042657e+001	9.027965e+001	-1.209482e+000	2.934293e+001	-1.234654e+000	2.932429e+001	-1.054732e+001	1.081429e+002
802196556	-1.014688e+001	8.788145e+001	-1.260275e+000	2.663810e+001	-1.280786e+000	2.662675e+001	-1.029367e+001	1.054720e+002
807509050	-9.880504e+000	8.525365e+001	-1.308598e+000	2.400257e+001	-1.330756e+000	2.396737e+001	-1.001364e+001	1.026212e+002
