!Agilent Technologies,E5071C,MY46104870,A.11.22
!Date: Sun Jan 01 03:08:00 2017
!Data & Calibration Information:
!Freq	S11:SOLT1(ON)
!PortZ  Port1:50+j0
!Above PortZ is port z conversion or system Z0 setting when saving the data.
!When reading, reference impedance value at option line is always used.
# Hz S dB R 50
2000000000	-3.048094e-002	-4.851374e+001
2001000000	-3.554382e-002	-4.887678e+001
2002000000	-4.386130e-002	-4.923198e+001
2003000000	-4.988084e-002	-4.958711e+001
2004000000	-5.603860e-002	-4.995741e+001
2005000000	-6.419144e-002	-5.030967e+001
2006000000	-7.182091e-002	-5.068074e+001
2007000000	-7.887007e-002	-5.103067e+001
2008000000	-8.779532e-002	-5.139090e+001
2009000000	-9.455169e-002	-5.175238e+001
2010000000	-1.033427e-001	-5.210518e+001
2011000000	-1.101850e-001	-5.245488e+001
2012000000	-1.206362e-001	-5.279428e+001
2013000000	-1.292763e-001	-5.315630e+001
2014000000	-1.368098e-001	-5.351068e+001
2015000000	-1.462357e-001	-5.386585e+001
2016000000	-1.547844e-001	-5.420311e+001
2017000000	-1.644457e-001	-5.456068e+001
2018000000	-1.739271e-001	-5.490779e+001
2019000000	-1.823548e-001	-5.524362e+001
2020000000	-1.919243e-001	-5.558811e+001
2021000000	-2.016433e-001	-5.594225e+001
2022000000	-2.095055e-001	-5.627907e+001
2023000000	-2.199546e-001	-5.662773e+001
2024000000	-2.285011e-001	-5.696731e+001
2025000000	-2.370146e-001	-5.731036e+001
2026000000	-2.466648e-001	-5.764405e+001
2027000000	-2.567798e-001	-5.798419e+001
2028000000	-2.661024e-001	-5.832685e+001
2029000000	-2.760262e-001	-5.866931e+001
2030000000	-2.842925e-001	-5.900372e+001
2031000000	-2.937297e-001	-5.933373e+001
2032000000	-3.036756e-001	-5.967198e+001
2033000000	-3.117581e-001	-6.000576e+001
2034000000	-3.224109e-001	-6.033702e+001
2035000000	-3.329901e-001	-6.066600e+001
2036000000	-3.423012e-001	-6.099738e+001
2037000000	-3.507750e-001	-6.133020e+001
2038000000	-3.607614e-001	-6.165318e+001
2039000000	-3.703210e-001	-6.198822e+001
2040000000	-3.792485e-001	-6.231857e+001
2041000000	-3.889110e-001	-6.263412e+001
2042000000	-3.986788e-001	-6.296628e+001
2043000000	-4.070517e-001	-6.328163e+001
2044000000	-4.163316e-001	-6.361480e+001
2045000000	-4.255079e-001	-6.393680e+001
2046000000	-4.357931e-001	-6.425610e+001
2047000000	-4.449630e-001	-6.458087e+001
2048000000	-4.537676e-001	-6.489839e+001
2049000000	-4.623182e-001	-6.521735e+001
2050000000	-4.710753e-001	-6.553514e+001
2051000000	-4.799831e-001	-6.585899e+001
2052000000	-4.897866e-001	-6.617982e+001
2053000000	-4.980385e-001	-6.649483e+001
2054000000	-5.062146e-001	-6.681175e+001
2055000000	-5.150510e-001	-6.713431e+001
2056000000	-5.232042e-001	-6.745063e+001
2057000000	-5.312803e-001	-6.775979e+001
2058000000	-5.399780e-001	-6.807201e+001
2059000000	-5.473000e-001	-6.838682e+001
2060000000	-5.556179e-001	-6.870396e+001
2061000000	-5.638020e-001	-6.901894e+001
2062000000	-5.723175e-001	-6.933234e+001
2063000000	-5.803224e-001	-6.964740e+001
2064000000	-5.882398e-001	-6.995913e+001
2065000000	-5.958261e-001	-7.027052e+001
2066000000	-6.028878e-001	-7.058541e+001
2067000000	-6.102339e-001	-7.089025e+001
2068000000	-6.177498e-001	-7.119792e+001
2069000000	-6.247511e-001	-7.151251e+001
2070000000	-6.330711e-001	-7.182895e+001
2071000000	-6.390489e-001	-7.213315e+001
2072000000	-6.459895e-001	-7.243813e+001
2073000000	-6.525855e-001	-7.275311e+001
2074000000	-6.602206e-001	-7.306162e+001
2075000000	-6.668349e-001	-7.337135e+001
2076000000	-6.724404e-001	-7.366984e+001
2077000000	-6.802619e-001	-7.397481e+001
2078000000	-6.864761e-001	-7.428591e+001
2079000000	-6.918898e-001	-7.459653e+001
2080000000	-6.995491e-001	-7.490370e+001
2081000000	-7.048274e-001	-7.521018e+001
2082000000	-7.097606e-001	-7.551258e+001
2083000000	-7.160552e-001	-7.582286e+001
2084000000	-7.227009e-001	-7.613162e+001
2085000000	-7.287734e-001	-7.643678e+001
2086000000	-7.333155e-001	-7.673963e+001
2087000000	-7.395341e-001	-7.704404e+001
2088000000	-7.449194e-001	-7.734968e+001
2089000000	-7.507646e-001	-7.765068e+001
2090000000	-7.548998e-001	-7.795688e+001
2091000000	-7.612680e-001	-7.826414e+001
2092000000	-7.658577e-001	-7.856703e+001
2093000000	-7.704330e-001	-7.886942e+001
2094000000	-7.756501e-001	-7.917651e+001
2095000000	-7.794398e-001	-7.948251e+001
2096000000	-7.859545e-001	-7.978204e+001
2097000000	-7.909827e-001	-8.009495e+001
2098000000	-7.936861e-001	-8.039133e+001
2099000000	-7.985950e-001	-8.069210e+001
2100000000	-8.028864e-001	-8.100605e+001
2101000000	-8.073096e-001	-8.130765e+001
2102000000	-8.113490e-001	-8.161414e+001
2103000000	-8.145847e-001	-8.192041e+001
2104000000	-8.200719e-001	-8.222075e+001
2105000000	-8.232295e-001	-8.252310e+001
2106000000	-8.261127e-001	-8.283025e+001
2107000000	-8.302339e-001	-8.313575e+001
2108000000	-8.331906e-001	-8.343482e+001
2109000000	-8.376119e-001	-8.374884e+001
2110000000	-8.410208e-001	-8.404757e+001
2111000000	-8.436393e-001	-8.435948e+001
2112000000	-8.476955e-001	-8.465861e+001
2113000000	-8.496086e-001	-8.496617e+001
2114000000	-8.536942e-001	-8.527437e+001
2115000000	-8.564079e-001	-8.557505e+001
2116000000	-8.590772e-001	-8.588911e+001
2117000000	-8.608070e-001	-8.619542e+001
2118000000	-8.635964e-001	-8.650104e+001
2119000000	-8.668725e-001	-8.682123e+001
2120000000	-8.696473e-001	-8.712305e+001
2121000000	-8.708167e-001	-8.742834e+001
2122000000	-8.738937e-001	-8.774074e+001
2123000000	-8.760913e-001	-8.805103e+001
2124000000	-8.777215e-001	-8.834960e+001
2125000000	-8.789656e-001	-8.866732e+001
2126000000	-8.817152e-001	-8.896864e+001
2127000000	-8.831830e-001	-8.928544e+001
2128000000	-8.850230e-001	-8.959910e+001
2129000000	-8.869489e-001	-8.991206e+001
2130000000	-8.880922e-001	-9.022386e+001
2131000000	-8.898809e-001	-9.053306e+001
2132000000	-8.912563e-001	-9.084113e+001
2133000000	-8.928149e-001	-9.116301e+001
2134000000	-8.937761e-001	-9.147441e+001
2135000000	-8.964219e-001	-9.179667e+001
2136000000	-8.966946e-001	-9.210989e+001
2137000000	-8.983437e-001	-9.242813e+001
2138000000	-8.992019e-001	-9.274442e+001
2139000000	-9.012799e-001	-9.306750e+001
2140000000	-9.011173e-001	-9.338741e+001
2141000000	-9.014566e-001	-9.370426e+001
2142000000	-9.035568e-001	-9.402647e+001
2143000000	-9.041924e-001	-9.434376e+001
2144000000	-9.035237e-001	-9.465749e+001
2145000000	-9.052124e-001	-9.498740e+001
2146000000	-9.063677e-001	-9.529990e+001
2147000000	-9.068015e-001	-9.563570e+001
2148000000	-9.071600e-001	-9.595059e+001
2149000000	-9.073769e-001	-9.627548e+001
2150000000	-9.085269e-001	-9.660525e+001
2151000000	-9.099695e-001	-9.692305e+001
2152000000	-9.098384e-001	-9.725553e+001
2153000000	-9.085993e-001	-9.757898e+001
2154000000	-9.088759e-001	-9.790308e+001
2155000000	-9.103702e-001	-9.824717e+001
2156000000	-9.110142e-001	-9.857425e+001
2157000000	-9.104103e-001	-9.890411e+001
2158000000	-9.103525e-001	-9.922499e+001
2159000000	-9.113528e-001	-9.956773e+001
2160000000	-9.113269e-001	-9.989159e+001
2161000000	-9.121270e-001	-1.002299e+002
2162000000	-9.113718e-001	-1.005596e+002
2163000000	-9.133393e-001	-1.008985e+002
2164000000	-9.138142e-001	-1.012500e+002
2165000000	-9.124909e-001	-1.015771e+002
2166000000	-9.130169e-001	-1.019184e+002
2167000000	-9.130516e-001	-1.022597e+002
2168000000	-9.157922e-001	-1.025970e+002
2169000000	-9.144608e-001	-1.029336e+002
2170000000	-9.152647e-001	-1.032868e+002
2171000000	-9.160024e-001	-1.036290e+002
2172000000	-9.162774e-001	-1.039691e+002
2173000000	-9.155774e-001	-1.043074e+002
2174000000	-9.163565e-001	-1.046510e+002
2175000000	-9.166067e-001	-1.050018e+002
2176000000	-9.184057e-001	-1.053445e+002
2177000000	-9.181658e-001	-1.056806e+002
2178000000	-9.195110e-001	-1.060334e+002
2179000000	-9.184785e-001	-1.063835e+002
2180000000	-9.199682e-001	-1.067362e+002
2181000000	-9.210324e-001	-1.070837e+002
2182000000	-9.204516e-001	-1.074355e+002
2183000000	-9.207761e-001	-1.077845e+002
2184000000	-9.227392e-001	-1.081497e+002
2185000000	-9.233281e-001	-1.085138e+002
2186000000	-9.247151e-001	-1.088575e+002
2187000000	-9.245852e-001	-1.092160e+002
2188000000	-9.248209e-001	-1.095758e+002
2189000000	-9.275839e-001	-1.099361e+002
2190000000	-9.288863e-001	-1.102985e+002
2191000000	-9.297079e-001	-1.106597e+002
2192000000	-9.292756e-001	-1.110181e+002
2193000000	-9.336837e-001	-1.113898e+002
2194000000	-9.312370e-001	-1.117508e+002
2195000000	-9.336667e-001	-1.121179e+002
2196000000	-9.347558e-001	-1.124730e+002
2197000000	-9.366072e-001	-1.128477e+002
2198000000	-9.388877e-001	-1.132194e+002
2199000000	-9.394015e-001	-1.135812e+002
2200000000	-9.411355e-001	-1.139633e+002
2201000000	-9.425361e-001	-1.143206e+002
2202000000	-9.465202e-001	-1.146976e+002
2203000000	-9.478667e-001	-1.150702e+002
2204000000	-9.502628e-001	-1.154423e+002
2205000000	-9.513764e-001	-1.158148e+002
2206000000	-9.547677e-001	-1.161822e+002
2207000000	-9.559421e-001	-1.165722e+002
2208000000	-9.581365e-001	-1.169384e+002
2209000000	-9.612060e-001	-1.173150e+002
2210000000	-9.657324e-001	-1.177058e+002
2211000000	-9.665985e-001	-1.180813e+002
2212000000	-9.711371e-001	-1.184613e+002
2213000000	-9.739592e-001	-1.188395e+002
2214000000	-9.776952e-001	-1.192189e+002
2215000000	-9.815190e-001	-1.196125e+002
2216000000	-9.839523e-001	-1.200116e+002
2217000000	-9.872849e-001	-1.203872e+002
2218000000	-9.900365e-001	-1.207724e+002
2219000000	-9.942022e-001	-1.211557e+002
2220000000	-9.966438e-001	-1.215578e+002
2221000000	-1.000749e+000	-1.219395e+002
2222000000	-1.004760e+000	-1.223335e+002
2223000000	-1.010460e+000	-1.227327e+002
2224000000	-1.014064e+000	-1.231123e+002
2225000000	-1.020090e+000	-1.235154e+002
2226000000	-1.024048e+000	-1.239221e+002
2227000000	-1.028401e+000	-1.243046e+002
2228000000	-1.034330e+000	-1.246994e+002
2229000000	-1.039375e+000	-1.251032e+002
2230000000	-1.045176e+000	-1.255021e+002
2231000000	-1.048986e+000	-1.258857e+002
2232000000	-1.054931e+000	-1.262987e+002
2233000000	-1.061462e+000	-1.267035e+002
2234000000	-1.067213e+000	-1.271065e+002
2235000000	-1.071108e+000	-1.275020e+002
2236000000	-1.078085e+000	-1.279192e+002
2237000000	-1.085300e+000	-1.283282e+002
2238000000	-1.087673e+000	-1.287381e+002
2239000000	-1.095312e+000	-1.291480e+002
2240000000	-1.101491e+000	-1.295555e+002
2241000000	-1.111783e+000	-1.299615e+002
2242000000	-1.115407e+000	-1.303741e+002
2243000000	-1.123967e+000	-1.307946e+002
2244000000	-1.130434e+000	-1.312121e+002
2245000000	-1.138150e+000	-1.316379e+002
2246000000	-1.146024e+000	-1.320452e+002
2247000000	-1.152225e+000	-1.324736e+002
2248000000	-1.160465e+000	-1.328760e+002
2249000000	-1.169354e+000	-1.333078e+002
2250000000	-1.176510e+000	-1.337280e+002
2251000000	-1.184075e+000	-1.341542e+002
2252000000	-1.195062e+000	-1.345754e+002
2253000000	-1.202757e+000	-1.350211e+002
2254000000	-1.211240e+000	-1.354429e+002
2255000000	-1.220787e+000	-1.358744e+002
2256000000	-1.230009e+000	-1.362950e+002
2257000000	-1.238950e+000	-1.367209e+002
2258000000	-1.248624e+000	-1.371708e+002
2259000000	-1.258338e+000	-1.375948e+002
2260000000	-1.268572e+000	-1.380251e+002
2261000000	-1.276729e+000	-1.384526e+002
2262000000	-1.287789e+000	-1.389029e+002
2263000000	-1.298621e+000	-1.393552e+002
2264000000	-1.307648e+000	-1.397883e+002
2265000000	-1.320487e+000	-1.402351e+002
2266000000	-1.332237e+000	-1.406625e+002
2267000000	-1.341381e+000	-1.411212e+002
2268000000	-1.352757e+000	-1.415591e+002
2269000000	-1.366081e+000	-1.420199e+002
2270000000	-1.376112e+000	-1.424721e+002
2271000000	-1.388015e+000	-1.429141e+002
2272000000	-1.400189e+000	-1.433773e+002
2273000000	-1.411649e+000	-1.438212e+002
2274000000	-1.422445e+000	-1.442716e+002
2275000000	-1.435240e+000	-1.447251e+002
2276000000	-1.451896e+000	-1.451963e+002
2277000000	-1.462293e+000	-1.456720e+002
2278000000	-1.474596e+000	-1.461236e+002
2279000000	-1.488241e+000	-1.465969e+002
2280000000	-1.502412e+000	-1.470646e+002
2281000000	-1.513848e+000	-1.475395e+002
2282000000	-1.528437e+000	-1.480087e+002
2283000000	-1.543257e+000	-1.484830e+002
2284000000	-1.557123e+000	-1.489515e+002
2285000000	-1.574002e+000	-1.494364e+002
2286000000	-1.589509e+000	-1.499319e+002
2287000000	-1.603913e+000	-1.503941e+002
2288000000	-1.620194e+000	-1.508930e+002
2289000000	-1.635734e+000	-1.513863e+002
2290000000	-1.651577e+000	-1.518654e+002
2291000000	-1.669703e+000	-1.523583e+002
2292000000	-1.686713e+000	-1.528382e+002
2293000000	-1.701316e+000	-1.533395e+002
2294000000	-1.718254e+000	-1.538413e+002
2295000000	-1.738210e+000	-1.543375e+002
2296000000	-1.755476e+000	-1.548461e+002
2297000000	-1.773775e+000	-1.553458e+002
2298000000	-1.790335e+000	-1.558516e+002
2299000000	-1.810930e+000	-1.563703e+002
2300000000	-1.830192e+000	-1.568702e+002
2301000000	-1.847894e+000	-1.573937e+002
2302000000	-1.868263e+000	-1.579110e+002
2303000000	-1.889078e+000	-1.584309e+002
2304000000	-1.910409e+000	-1.589551e+002
2305000000	-1.930936e+000	-1.594819e+002
2306000000	-1.950742e+000	-1.600123e+002
2307000000	-1.973777e+000	-1.605394e+002
2308000000	-1.994541e+000	-1.610849e+002
2309000000	-2.019459e+000	-1.616311e+002
2310000000	-2.042906e+000	-1.621598e+002
2311000000	-2.065585e+000	-1.627071e+002
2312000000	-2.088954e+000	-1.632572e+002
2313000000	-2.114195e+000	-1.638149e+002
2314000000	-2.137571e+000	-1.643870e+002
2315000000	-2.163257e+000	-1.649337e+002
2316000000	-2.191169e+000	-1.655020e+002
2317000000	-2.216387e+000	-1.660615e+002
2318000000	-2.244546e+000	-1.666449e+002
2319000000	-2.270406e+000	-1.672093e+002
2320000000	-2.300031e+000	-1.677966e+002
2321000000	-2.328046e+000	-1.683806e+002
2322000000	-2.358660e+000	-1.689611e+002
2323000000	-2.388319e+000	-1.695454e+002
2324000000	-2.417996e+000	-1.701446e+002
2325000000	-2.448638e+000	-1.707456e+002
2326000000	-2.480679e+000	-1.713523e+002
2327000000	-2.513657e+000	-1.719572e+002
2328000000	-2.544489e+000	-1.725769e+002
2329000000	-2.579551e+000	-1.732033e+002
2330000000	-2.616151e+000	-1.738147e+002
2331000000	-2.651590e+000	-1.744552e+002
2332000000	-2.688333e+000	-1.750861e+002
2333000000	-2.725380e+000	-1.757135e+002
2334000000	-2.763330e+000	-1.763647e+002
2335000000	-2.801084e+000	-1.770101e+002
2336000000	-2.843834e+000	-1.776666e+002
2337000000	-2.884035e+000	-1.783261e+002
2338000000	-2.926766e+000	-1.789914e+002
2339000000	-2.968285e+000	-1.796636e+002
2340000000	-3.012043e+000	1.796642e+002
2341000000	-3.057446e+000	1.789752e+002
2342000000	-3.102598e+000	1.782795e+002
2343000000	-3.150491e+000	1.775884e+002
2344000000	-3.198463e+000	1.768860e+002
2345000000	-3.247536e+000	1.761643e+002
2346000000	-3.298253e+000	1.754402e+002
2347000000	-3.349117e+000	1.747157e+002
2348000000	-3.403863e+000	1.739799e+002
2349000000	-3.458178e+000	1.732435e+002
2350000000	-3.515615e+000	1.724944e+002
2351000000	-3.573088e+000	1.717271e+002
2352000000	-3.633342e+000	1.709696e+002
2353000000	-3.693518e+000	1.701880e+002
2354000000	-3.757800e+000	1.694203e+002
2355000000	-3.822088e+000	1.686225e+002
2356000000	-3.889327e+000	1.678208e+002
2357000000	-3.957412e+000	1.670180e+002
2358000000	-4.029219e+000	1.662084e+002
2359000000	-4.101724e+000	1.653856e+002
2360000000	-4.175605e+000	1.645512e+002
2361000000	-4.253823e+000	1.637113e+002
2362000000	-4.331925e+000	1.628663e+002
2363000000	-4.414000e+000	1.620076e+002
2364000000	-4.496655e+000	1.611355e+002
2365000000	-4.581384e+000	1.602497e+002
2366000000	-4.670170e+000	1.593625e+002
2367000000	-4.760324e+000	1.584514e+002
2368000000	-4.852459e+000	1.575220e+002
2369000000	-4.948183e+000	1.566008e+002
2370000000	-5.047134e+000	1.556665e+002
2371000000	-5.150430e+000	1.547091e+002
2372000000	-5.256040e+000	1.537422e+002
2373000000	-5.363523e+000	1.527635e+002
2374000000	-5.477130e+000	1.517782e+002
2375000000	-5.592175e+000	1.507803e+002
2376000000	-5.710053e+000	1.497497e+002
2377000000	-5.834688e+000	1.487204e+002
2378000000	-5.958394e+000	1.476707e+002
2379000000	-6.089041e+000	1.466108e+002
2380000000	-6.223629e+000	1.455277e+002
2381000000	-6.361007e+000	1.444186e+002
2382000000	-6.505309e+000	1.432986e+002
2383000000	-6.653608e+000	1.421504e+002
2384000000	-6.804407e+000	1.409856e+002
2385000000	-6.961575e+000	1.398022e+002
2386000000	-7.123656e+000	1.385766e+002
2387000000	-7.293704e+000	1.373451e+002
2388000000	-7.467635e+000	1.360667e+002
2389000000	-7.647685e+000	1.347869e+002
2390000000	-7.837589e+000	1.334516e+002
2391000000	-8.031749e+000	1.320990e+002
2392000000	-8.232242e+000	1.307087e+002
2393000000	-8.441127e+000	1.292764e+002
2394000000	-8.659603e+000	1.278460e+002
2395000000	-8.883183e+000	1.263402e+002
2396000000	-9.116410e+000	1.247992e+002
2397000000	-9.357879e+000	1.232013e+002
2398000000	-9.607745e+000	1.215325e+002
2399000000	-9.871184e+000	1.198073e+002
2400000000	-1.014697e+001	1.180468e+002
2401000000	-1.042726e+001	1.161918e+002
2402000000	-1.072277e+001	1.142761e+002
2403000000	-1.103368e+001	1.122579e+002
2404000000	-1.135449e+001	1.101696e+002
2405000000	-1.169066e+001	1.079492e+002
2406000000	-1.204221e+001	1.056394e+002
2407000000	-1.240993e+001	1.031877e+002
2408000000	-1.278965e+001	1.006165e+002
2409000000	-1.319136e+001	9.787883e+001
2410000000	-1.360329e+001	9.498732e+001
2411000000	-1.402896e+001	9.189126e+001
2412000000	-1.446982e+001	8.856040e+001
2413000000	-1.492559e+001	8.493873e+001
2414000000	-1.539303e+001	8.107653e+001
2415000000	-1.586217e+001	7.689093e+001
2416000000	-1.633535e+001	7.229076e+001
2417000000	-1.679453e+001	6.732803e+001
2418000000	-1.725587e+001	6.190890e+001
2419000000	-1.767380e+001	5.607180e+001
2420000000	-1.804646e+001	4.972903e+001
2421000000	-1.836750e+001	4.300189e+001
2422000000	-1.859743e+001	3.595413e+001
2423000000	-1.875064e+001	2.849611e+001
2424000000	-1.878230e+001	2.107568e+001
2425000000	-1.873279e+001	1.361680e+001
2426000000	-1.856724e+001	6.448805e+000
2427000000	-1.832159e+001	-4.426476e-001
2428000000	-1.799648e+001	-6.937962e+000
2429000000	-1.761243e+001	-1.292272e+001
2430000000	-1.719623e+001	-1.854026e+001
2431000000	-1.675090e+001	-2.363600e+001
2432000000	-1.628860e+001	-2.839089e+001
2433000000	-1.582889e+001	-3.268633e+001
2434000000	-1.536771e+001	-3.667735e+001
2435000000	-1.491226e+001	-4.037045e+001
2436000000	-1.447780e+001	-4.375218e+001
2437000000	-1.404680e+001	-4.690069e+001
2438000000	-1.363196e+001	-4.981806e+001
2439000000	-1.322421e+001	-5.257542e+001
2440000000	-1.284055e+001	-5.517174e+001
2441000000	-1.246786e+001	-5.760107e+001
2442000000	-1.210809e+001	-5.993144e+001
2443000000	-1.176327e+001	-6.212486e+001
2444000000	-1.143330e+001	-6.424425e+001
2445000000	-1.111738e+001	-6.625143e+001
2446000000	-1.081282e+001	-6.819284e+001
2447000000	-1.052041e+001	-7.002412e+001
2448000000	-1.024077e+001	-7.181405e+001
2449000000	-9.966954e+000	-7.354426e+001
2450000000	-9.711001e+000	-7.518610e+001
2451000000	-9.458191e+000	-7.682505e+001
2452000000	-9.219652e+000	-7.840511e+001
2453000000	-8.989298e+000	-7.993518e+001
2454000000	-8.766413e+000	-8.143191e+001
2455000000	-8.556037e+000	-8.286651e+001
2456000000	-8.351704e+000	-8.428013e+001
2457000000	-8.155609e+000	-8.568293e+001
2458000000	-7.965786e+000	-8.700216e+001
2459000000	-7.782088e+000	-8.831901e+001
2460000000	-7.610399e+000	-8.960454e+001
2461000000	-7.439807e+000	-9.085482e+001
2462000000	-7.276662e+000	-9.211374e+001
2463000000	-7.119834e+000	-9.332549e+001
2464000000	-6.970459e+000	-9.452969e+001
2465000000	-6.823604e+000	-9.566603e+001
2466000000	-6.685007e+000	-9.681243e+001
2467000000	-6.547210e+000	-9.791255e+001
2468000000	-6.416874e+000	-9.901046e+001
2469000000	-6.285827e+000	-1.000821e+002
2470000000	-6.162425e+000	-1.011337e+002
2471000000	-6.040875e+000	-1.021690e+002
2472000000	-5.923911e+000	-1.032047e+002
2473000000	-5.810726e+000	-1.042266e+002
2474000000	-5.701415e+000	-1.052282e+002
2475000000	-5.596312e+000	-1.062225e+002
2476000000	-5.494578e+000	-1.072044e+002
2477000000	-5.396476e+000	-1.081553e+002
2478000000	-5.301037e+000	-1.091078e+002
2479000000	-5.209609e+000	-1.100311e+002
2480000000	-5.120390e+000	-1.109313e+002
2481000000	-5.034838e+000	-1.118486e+002
