!Agilent Technologies,E5071C,MY46104870,A.11.22
!Date: Sun Jan 01 02:18:04 2017
!Data & Calibration Information:
!Freq	S11:SOLT2(ON)
!PortZ  Port1:50+j0
!Above PortZ is port z conversion or system Z0 setting when saving the data.
!When reading, reference impedance value at option line is always used.
# Hz S dB R 50
2200000000	7.117933e+000	1.649653e+002
2200800000	7.051730e+000	-1.749873e+002
2201600000	6.984990e+000	-1.549387e+002
2202400000	6.956127e+000	-1.352111e+002
2203200000	6.940822e+000	-1.156207e+002
2204000000	6.932971e+000	-9.605042e+001
2204800000	6.942190e+000	-7.669590e+001
2205600000	6.940402e+000	-5.731979e+001
2206400000	6.985416e+000	-3.782229e+001
2207200000	7.029482e+000	-1.835272e+001
2208000000	7.086559e+000	1.335126e+000
2208800000	7.152762e+000	2.116645e+001
2209600000	7.214029e+000	4.111026e+001
2210400000	7.253032e+000	6.132524e+001
2211200000	7.292433e+000	8.155069e+001
2212000000	7.285006e+000	1.019667e+002
2212800000	7.272320e+000	1.223776e+002
2213600000	7.237327e+000	1.427230e+002
2214400000	7.187364e+000	1.630318e+002
2215200000	7.140703e+000	-1.767856e+002
2216000000	7.103954e+000	-1.569405e+002
2216800000	7.065113e+000	-1.370379e+002
2217600000	7.057010e+000	-1.174766e+002
2218400000	7.042010e+000	-9.793379e+001
2219200000	7.055914e+000	-7.837962e+001
2220000000	7.088831e+000	-5.883074e+001
2220800000	7.122878e+000	-3.923837e+001
2221600000	7.174933e+000	-1.943289e+001
2222400000	7.231969e+000	3.816396e-001
2223200000	7.284399e+000	2.043434e+001
2224000000	7.336237e+000	4.054848e+001
2224800000	7.373576e+000	6.085676e+001
2225600000	7.397937e+000	8.134280e+001
2226400000	7.406915e+000	1.018162e+002
2227200000	7.369131e+000	1.222546e+002
2228000000	7.331877e+000	1.426912e+002
2228800000	7.265314e+000	1.629439e+002
2229600000	7.196303e+000	-1.768015e+002
2230400000	7.148909e+000	-1.568259e+002
2231200000	7.112065e+000	-1.371203e+002
2232000000	7.076417e+000	-1.173897e+002
2232800000	7.072993e+000	-9.780348e+001
2233600000	7.059099e+000	-7.820756e+001
2234400000	7.097088e+000	-5.869891e+001
2235200000	7.145759e+000	-3.921372e+001
2236000000	7.192107e+000	-1.961733e+001
2236800000	7.237304e+000	1.366306e-001
2237600000	7.285670e+000	1.994486e+001
2238400000	7.337708e+000	4.009545e+001
2239200000	7.388805e+000	6.026748e+001
2240000000	7.406607e+000	8.077852e+001
2240800000	7.410275e+000	1.013656e+002
2241600000	7.399085e+000	1.218944e+002
2242400000	7.366243e+000	1.423308e+002
2243200000	7.330760e+000	1.627443e+002
2244000000	7.253528e+000	-1.771814e+002
2244800000	7.180174e+000	-1.570290e+002
2245600000	7.142986e+000	-1.372499e+002
2246400000	7.108569e+000	-1.175985e+002
2247200000	7.084796e+000	-9.794140e+001
2248000000	7.090498e+000	-7.832934e+001
2248800000	7.094775e+000	-5.871372e+001
2249600000	7.140440e+000	-3.909270e+001
2250400000	7.188971e+000	-1.946883e+001
2251200000	7.242541e+000	3.263103e-001
2252000000	7.300511e+000	2.018437e+001
2252800000	7.349934e+000	4.022953e+001
2253600000	7.385423e+000	6.057343e+001
2254400000	7.413141e+000	8.092589e+001
2255200000	7.393938e+000	1.014548e+002
2256000000	7.371863e+000	1.219866e+002
2256800000	7.333678e+000	1.423968e+002
2257600000	7.287309e+000	1.627617e+002
2258400000	7.239745e+000	-1.769830e+002
2259200000	7.182263e+000	-1.569584e+002
2260000000	7.123484e+000	-1.368702e+002
2260800000	7.094492e+000	-1.170588e+002
2261600000	7.060321e+000	-9.721918e+001
2262400000	7.064505e+000	-7.747225e+001
2263200000	7.093387e+000	-5.776396e+001
2264000000	7.126707e+000	-3.805765e+001
2264800000	7.170612e+000	-1.833604e+001
2265600000	7.216463e+000	1.384559e+000
2266400000	7.249991e+000	2.148567e+001
2267200000	7.280966e+000	4.161040e+001
2268000000	7.306073e+000	6.191408e+001
2268800000	7.325862e+000	8.232215e+001
2269600000	7.324596e+000	1.027533e+002
2270400000	7.278616e+000	1.232319e+002
2271200000	7.236599e+000	1.436976e+002
2272000000	7.182630e+000	1.639087e+002
2272800000	7.128086e+000	-1.758696e+002
2273600000	7.076947e+000	-1.558554e+002
2274400000	7.023797e+000	-1.359826e+002
2275200000	6.981176e+000	-1.161146e+002
2276000000	6.979204e+000	-9.639553e+001
2276800000	6.975091e+000	-7.667234e+001
2277600000	7.001211e+000	-5.695886e+001
2278400000	7.030878e+000	-3.723971e+001
2279200000	7.072423e+000	-1.741840e+001
2280000000	7.120861e+000	2.515699e+000
2280800000	7.163950e+000	2.253186e+001
2281600000	7.187814e+000	4.282485e+001
2282400000	7.209719e+000	6.313067e+001
2283200000	7.204600e+000	8.358721e+001
2284000000	7.197452e+000	1.040586e+002
2284800000	7.161139e+000	1.245628e+002
2285600000	7.103521e+000	1.451149e+002
2286400000	7.053054e+000	1.655933e+002
2287200000	6.991185e+000	-1.743116e+002
2288000000	6.925545e+000	-1.541632e+002
2288800000	6.886206e+000	-1.342818e+002
2289600000	6.847455e+000	-1.144420e+002
2290400000	6.825747e+000	-9.471194e+001
2291200000	6.819836e+000	-7.510229e+001
2292000000	6.822390e+000	-5.548517e+001
2292800000	6.855505e+000	-3.575374e+001
2293600000	6.891180e+000	-1.601912e+001
2294400000	6.916139e+000	3.840458e+000
2295200000	6.937044e+000	2.371672e+001
2296000000	6.954766e+000	4.381297e+001
2296800000	6.966735e+000	6.413572e+001
2297600000	6.975346e+000	8.445950e+001
2298400000	6.953557e+000	1.047827e+002
2299200000	6.934518e+000	1.251049e+002
2300000000	6.877292e+000	1.454037e+002
2300800000	6.811018e+000	1.657427e+002
2301600000	6.747833e+000	-1.740820e+002
2302400000	6.689244e+000	-1.541036e+002
2303200000	6.635527e+000	-1.341394e+002
2304000000	6.623793e+000	-1.143461e+002
2304800000	6.613445e+000	-9.455741e+001
2305600000	6.618849e+000	-7.485938e+001
2306400000	6.631310e+000	-5.520319e+001
2307200000	6.652620e+000	-3.548514e+001
2308000000	6.685246e+000	-1.565621e+001
2308800000	6.716377e+000	4.195523e+000
2309600000	6.738531e+000	2.439116e+001
2310400000	6.758279e+000	4.458111e+001
2311200000	6.755491e+000	6.490534e+001
2312000000	6.744145e+000	8.526475e+001
2312800000	6.716176e+000	1.056309e+002
2313600000	6.657354e+000	1.260826e+002
2314400000	6.604600e+000	1.465346e+002
2315200000	6.539446e+000	1.667598e+002
2316000000	6.473417e+000	-1.729806e+002
2316800000	6.419887e+000	-1.529873e+002
2317600000	6.369147e+000	-1.331321e+002
2318400000	6.327445e+000	-1.133089e+002
2319200000	6.302437e+000	-9.357779e+001
2320000000	6.278613e+000	-7.385733e+001
2320800000	6.283832e+000	-5.425518e+001
2321600000	6.290605e+000	-3.464681e+001
2322400000	6.307311e+000	-1.493682e+001
2323200000	6.329884e+000	4.836376e+000
2324000000	6.339565e+000	2.472997e+001
2324800000	6.325688e+000	4.485293e+001
2325600000	6.314449e+000	6.495838e+001
2326400000	6.278402e+000	8.513264e+001
2327200000	6.244266e+000	1.052936e+002
2328000000	6.192438e+000	1.254575e+002
2328800000	6.131938e+000	1.456445e+002
2329600000	6.072449e+000	1.657771e+002
2330400000	6.008634e+000	-1.742494e+002
2331200000	5.943336e+000	-1.542661e+002
2332000000	5.905239e+000	-1.345141e+002
2332800000	5.866840e+000	-1.147663e+002
2333600000	5.839992e+000	-9.509140e+001
2334400000	5.819124e+000	-7.546440e+001
2335200000	5.802119e+000	-5.583740e+001
2336000000	5.801542e+000	-3.617591e+001
2336800000	5.799026e+000	-1.652079e+001
2337600000	5.796251e+000	3.351850e+000
2338400000	5.792954e+000	2.322167e+001
2339200000	5.779242e+000	4.322625e+001
2340000000	5.759956e+000	6.332255e+001
2340800000	5.731032e+000	8.339595e+001
2341600000	5.661762e+000	1.035696e+002
2342400000	5.595568e+000	1.237480e+002
2343200000	5.529305e+000	1.438009e+002
2344000000	5.461642e+000	1.638310e+002
2344800000	5.390816e+000	-1.762583e+002
2345600000	5.315965e+000	-1.564538e+002
2346400000	5.244703e+000	-1.366861e+002
2347200000	5.191936e+000	-1.170441e+002
2348000000	5.137568e+000	-9.740938e+001
2348800000	5.100782e+000	-7.792192e+001
2349600000	5.067397e+000	-5.845472e+001
2350400000	5.042143e+000	-3.897785e+001
2351200000	5.028279e+000	-1.949812e+001
2352000000	5.010573e+000	7.782800e-003
2352800000	4.976843e+000	1.969777e+001
2353600000	4.942833e+000	3.935717e+001
2354400000	4.886975e+000	5.918828e+001
2355200000	4.827228e+000	7.903800e+001
2356000000	4.752216e+000	9.887230e+001
2356800000	4.660025e+000	1.187312e+002
2357600000	4.567735e+000	1.385634e+002
2358400000	4.470650e+000	1.583618e+002
2359200000	4.370938e+000	1.781506e+002
2360000000	4.279193e+000	-1.621497e+002
2360800000	4.188463e+000	-1.424763e+002
2361600000	4.107771e+000	-1.228557e+002
2362400000	4.040773e+000	-1.032917e+002
2363200000	3.976479e+000	-8.373502e+001
2364000000	3.933103e+000	-6.423276e+001
2364800000	3.886370e+000	-4.473107e+001
2365600000	3.827907e+000	-2.518707e+001
2366400000	3.761988e+000	-5.641556e+000
2367200000	3.690268e+000	1.393470e+001
2368000000	3.610833e+000	3.358539e+001
2368800000	3.528268e+000	5.321548e+001
2369600000	3.424911e+000	7.305019e+001
2370400000	3.323998e+000	9.287238e+001
2371200000	3.204680e+000	1.126292e+002
2372000000	3.073405e+000	1.323538e+002
2372800000	2.943796e+000	1.520725e+002
2373600000	2.815735e+000	1.717606e+002
2374400000	2.686519e+000	-1.685628e+002
2375200000	2.570103e+000	-1.491670e+002
2376000000	2.452183e+000	-1.297772e+002
2376800000	2.346716e+000	-1.104078e+002
2377600000	2.248212e+000	-9.104367e+001
2378400000	2.146345e+000	-7.170817e+001
2379200000	2.048472e+000	-5.241179e+001
2380000000	1.944725e+000	-3.314911e+001
2380800000	1.835119e+000	-1.382291e+001
2381600000	1.719256e+000	5.439685e+000
2382400000	1.580353e+000	2.482454e+001
2383200000	1.426085e+000	4.422836e+001
2384000000	1.268797e+000	6.362699e+001
2384800000	1.102812e+000	8.299457e+001
2385600000	9.357180e-001	1.023639e+002
2386400000	7.450093e-001	1.217515e+002
2387200000	5.492281e-001	1.411131e+002
2388000000	3.545062e-001	1.604281e+002
2388800000	1.588094e-001	1.796766e+002
2389600000	-3.745314e-002	-1.610962e+002
2390400000	-2.181841e-001	-1.419249e+002
2391200000	-4.074261e-001	-1.227748e+002
2392000000	-5.904686e-001	-1.038060e+002
2392800000	-7.797877e-001	-8.487676e+001
2393600000	-9.689594e-001	-6.591523e+001
2394400000	-1.163911e+000	-4.698864e+001
2395200000	-1.365465e+000	-2.807668e+001
2396000000	-1.582291e+000	-9.154167e+000
2396800000	-1.805827e+000	9.688858e+000
2397600000	-2.062265e+000	2.863904e+001
2398400000	-2.334335e+000	4.755823e+001
2399200000	-2.616619e+000	6.644548e+001
2400000000	-2.918130e+000	8.530286e+001
2400800000	-3.231129e+000	1.040931e+002
2401600000	-3.548729e+000	1.228969e+002
2402400000	-3.877164e+000	1.415918e+002
2403200000	-4.195147e+000	1.601186e+002
2404000000	-4.526180e+000	1.786108e+002
2404800000	-4.854711e+000	-1.630783e+002
2405600000	-5.191726e+000	-1.448780e+002
2406400000	-5.541053e+000	-1.268669e+002
2407200000	-5.888509e+000	-1.090338e+002
2408000000	-6.252794e+000	-9.129775e+001
2408800000	-6.633507e+000	-7.386105e+001
2409600000	-7.029729e+000	-5.666720e+001
2410400000	-7.454872e+000	-3.962521e+001
2411200000	-7.909183e+000	-2.277117e+001
2412000000	-8.359451e+000	-6.190024e+000
2412800000	-8.829520e+000	1.037781e+001
2413600000	-9.289739e+000	2.663526e+001
2414400000	-9.776450e+000	4.255086e+001
2415200000	-1.027127e+001	5.814669e+001
2416000000	-1.074169e+001	7.341840e+001
2416800000	-1.119598e+001	8.852541e+001
2417600000	-1.159625e+001	1.032125e+002
2418400000	-1.188807e+001	1.178928e+002
2419200000	-1.213964e+001	1.322474e+002
2420000000	-1.224136e+001	1.463549e+002
2420800000	-1.229104e+001	1.603297e+002
2421600000	-1.221430e+001	1.742778e+002
2422400000	-1.204996e+001	-1.716882e+002
2423200000	-1.181400e+001	-1.573369e+002
2424000000	-1.144881e+001	-1.431573e+002
2424800000	-1.106162e+001	-1.283610e+002
2425600000	-1.064299e+001	-1.134932e+002
2426400000	-1.020735e+001	-9.827759e+001
2427200000	-9.764471e+000	-8.287671e+001
2428000000	-9.318779e+000	-6.722679e+001
2428800000	-8.866942e+000	-5.123956e+001
2429600000	-8.455793e+000	-3.497046e+001
2430400000	-8.052457e+000	-1.841125e+001
2431200000	-7.677780e+000	-1.483628e+000
2432000000	-7.321182e+000	1.560359e+001
2432800000	-6.977955e+000	3.305731e+001
2433600000	-6.662009e+000	5.086489e+001
2434400000	-6.344951e+000	6.878905e+001
2435200000	-6.041833e+000	8.711559e+001
2436000000	-5.747419e+000	1.055136e+002
2436800000	-5.450325e+000	1.241185e+002
2437600000	-5.158737e+000	1.428026e+002
2438400000	-4.867927e+000	1.614970e+002
2439200000	-4.561245e+000	-1.797873e+002
2440000000	-4.271708e+000	-1.610015e+002
2440800000	-3.963894e+000	-1.424543e+002
2441600000	-3.674271e+000	-1.238358e+002
2442400000	-3.390521e+000	-1.053472e+002
2443200000	-3.113271e+000	-8.685635e+001
2444000000	-2.849468e+000	-6.840964e+001
2444800000	-2.599933e+000	-4.996705e+001
2445600000	-2.354422e+000	-3.153473e+001
2446400000	-2.136429e+000	-1.303819e+001
2447200000	-1.921126e+000	5.476748e+000
2448000000	-1.744042e+000	2.420103e+001
2448800000	-1.587754e+000	4.305430e+001
2449600000	-1.434887e+000	6.197015e+001
2450400000	-1.286921e+000	8.106233e+001
2451200000	-1.139935e+000	1.001611e+002
2452000000	-1.014135e+000	1.194223e+002
2452800000	-8.924207e-001	1.386879e+002
2453600000	-7.674481e-001	1.580096e+002
2454400000	-6.441258e-001	1.773434e+002
2455200000	-5.144020e-001	-1.633148e+002
2456000000	-3.650894e-001	-1.439945e+002
2456800000	-2.209417e-001	-1.246719e+002
2457600000	-6.546548e-002	-1.054752e+002
2458400000	9.132363e-002	-8.627743e+001
2459200000	2.437436e-001	-6.712522e+001
2460000000	3.964863e-001	-4.801680e+001
2460800000	5.461116e-001	-2.886352e+001
2461600000	6.934607e-001	-9.681476e+000
2462400000	8.383926e-001	9.507453e+000
2463200000	9.572239e-001	2.879761e+001
2464000000	1.072941e+000	4.811943e+001
2464800000	1.172856e+000	6.745017e+001
2465600000	1.254340e+000	8.680088e+001
2466400000	1.333017e+000	1.061705e+002
2467200000	1.409138e+000	1.256126e+002
2468000000	1.482440e+000	1.450662e+002
2468800000	1.560978e+000	1.644354e+002
2469600000	1.639291e+000	-1.762219e+002
2470400000	1.723314e+000	-1.569007e+002
2471200000	1.815028e+000	-1.376255e+002
2472000000	1.905655e+000	-1.183579e+002
2472800000	2.008212e+000	-9.921779e+001
2473600000	2.105022e+000	-8.006449e+001
2474400000	2.219788e+000	-6.080257e+001
2475200000	2.336618e+000	-4.151714e+001
2476000000	2.448799e+000	-2.217372e+001
2476800000	2.560462e+000	-2.747793e+000
2477600000	2.664781e+000	1.667413e+001
2478400000	2.732792e+000	3.631988e+001
2479200000	2.802999e+000	5.596935e+001
2480000000	2.862143e+000	7.565525e+001
2480800000	2.916382e+000	9.535160e+001
2481600000	2.967063e+000	1.150162e+002
2482400000	3.012070e+000	1.346164e+002
2483200000	3.051175e+000	1.542019e+002
2484000000	3.093093e+000	1.735987e+002
2484800000	3.133566e+000	-1.669957e+002
2485600000	3.189992e+000	-1.477413e+002
2486400000	3.252157e+000	-1.285307e+002
2487200000	3.318659e+000	-1.093709e+002
2488000000	3.396181e+000	-9.029938e+001
2488800000	3.474330e+000	-7.123269e+001
2489600000	3.570870e+000	-5.207669e+001
2490400000	3.662014e+000	-3.294923e+001
2491200000	3.746425e+000	-1.364256e+001
2492000000	3.835531e+000	5.714379e+000
2492800000	3.909420e+000	2.516343e+001
2493600000	3.966577e+000	4.483587e+001
2494400000	4.027925e+000	6.449891e+001
2495200000	4.060797e+000	8.423640e+001
2496000000	4.093563e+000	1.039850e+002
2496800000	4.108517e+000	1.236972e+002
2497600000	4.117028e+000	1.433982e+002
2498400000	4.127906e+000	1.630818e+002
2499200000	4.147067e+000	-1.772872e+002
2500000000	4.165242e+000	-1.576495e+002
2500800000	4.203853e+000	-1.383501e+002
2501600000	4.240749e+000	-1.190223e+002
2502400000	4.290785e+000	-9.976867e+001
2503200000	4.345413e+000	-8.052328e+001
2504000000	4.406095e+000	-6.125578e+001
2504800000	4.481998e+000	-4.197096e+001
2505600000	4.550152e+000	-2.272515e+001
2506400000	4.625486e+000	-3.236567e+000
2507200000	4.704568e+000	1.619645e+001
2508000000	4.766857e+000	3.581351e+001
2508800000	4.815459e+000	5.558569e+001
2509600000	4.857167e+000	7.538480e+001
2510400000	4.873315e+000	9.533827e+001
2511200000	4.888689e+000	1.152964e+002
2512000000	4.897040e+000	1.352149e+002
2512800000	4.902581e+000	1.551340e+002
2513600000	4.909969e+000	1.749815e+002
2514400000	4.919084e+000	-1.652444e+002
2515200000	4.932708e+000	-1.455377e+002
2516000000	4.957125e+000	-1.259708e+002
2516800000	4.978585e+000	-1.064095e+002
2517600000	5.041017e+000	-8.698545e+001
2518400000	5.099442e+000	-6.757699e+001
2519200000	5.158258e+000	-4.808453e+001
2520000000	5.219791e+000	-2.855876e+001
2520800000	5.284042e+000	-9.008537e+000
2521600000	5.349810e+000	1.058228e+001
2522400000	5.415904e+000	3.016867e+001
2523200000	5.449508e+000	4.998849e+001
2524000000	5.477273e+000	6.986845e+001
2524800000	5.497631e+000	8.973863e+001
2525600000	5.509519e+000	1.095952e+002
2526400000	5.518040e+000	1.294516e+002
2527200000	5.520044e+000	1.493641e+002
2528000000	5.522525e+000	1.692848e+002
2528800000	5.530174e+000	-1.709128e+002
2529600000	5.539360e+000	-1.511374e+002
2530400000	5.564004e+000	-1.314909e+002
2531200000	5.608628e+000	-1.119964e+002
2532000000	5.648038e+000	-9.246550e+001
2532800000	5.701188e+000	-7.290249e+001
2533600000	5.751918e+000	-5.334966e+001
2534400000	5.809187e+000	-3.369671e+001
2535200000	5.869297e+000	-1.401960e+001
2536000000	5.927501e+000	5.732961e+000
2536800000	5.988263e+000	2.558405e+001
2537600000	6.044415e+000	4.545827e+001
2538400000	6.059940e+000	6.537604e+001
2539200000	6.076656e+000	8.529287e+001
2540000000	6.077103e+000	1.052217e+002
2540800000	6.072222e+000	1.251599e+002
2541600000	6.057561e+000	1.450009e+002
2542400000	6.030218e+000	1.647280e+002
2543200000	6.005757e+000	-1.755487e+002
2544000000	6.005890e+000	-1.560788e+002
2544800000	5.999607e+000	-1.365270e+002
2545600000	6.028011e+000	-1.170863e+002
2546400000	6.056662e+000	-9.773050e+001
2547200000	6.093753e+000	-7.833737e+001
2548000000	6.159155e+000	-5.888974e+001
2548800000	6.220367e+000	-3.944724e+001
2549600000	6.281325e+000	-1.972232e+001
2550400000	6.345639e+000	1.998693e-002
2551200000	6.412174e+000	1.987766e+001
2552000000	6.479399e+000	3.981908e+001
2552800000	6.522026e+000	5.984020e+001
2553600000	6.519410e+000	7.992745e+001
2554400000	6.516974e+000	1.000170e+002
2555200000	6.496639e+000	1.201982e+002
2556000000	6.475472e+000	1.403841e+002
2556800000	6.452304e+000	1.604567e+002
2557600000	6.431563e+000	-1.795261e+002
2558400000	6.418504e+000	-1.595999e+002
2559200000	6.421993e+000	-1.398959e+002
2560000000	6.420588e+000	-1.201636e+002
2560800000	6.455193e+000	-1.005879e+002
2561600000	6.485493e+000	-8.101723e+001
2562400000	6.533017e+000	-6.138179e+001
2563200000	6.594349e+000	-4.170078e+001
2564000000	6.651856e+000	-2.195030e+001
2564800000	6.706172e+000	-2.018209e+000
2565600000	6.760138e+000	1.792972e+001
2566400000	6.807103e+000	3.808658e+001
2567200000	6.850742e+000	5.824361e+001
2568000000	6.857841e+000	7.848708e+001
2568800000	6.844401e+000	9.872344e+001
2569600000	6.828345e+000	1.189617e+002
2570400000	6.809251e+000	1.391552e+002
2571200000	6.788458e+000	1.593606e+002
2572000000	6.750002e+000	1.792561e+002
2572800000	6.709994e+000	-1.607797e+002
2573600000	6.702458e+000	-1.409930e+002
2574400000	6.706024e+000	-1.213763e+002
2575200000	6.710535e+000	-1.017365e+002
2576000000	6.745143e+000	-8.214245e+001
2576800000	6.776402e+000	-6.254121e+001
2577600000	6.835600e+000	-4.296757e+001
2578400000	6.900880e+000	-2.339106e+001
2579200000	6.961841e+000	-3.614030e+000
2580000000	7.014963e+000	1.633488e+001
2580800000	7.066203e+000	3.635817e+001
2581600000	7.106196e+000	5.661255e+001
2582400000	7.141730e+000	7.688321e+001
2583200000	7.135997e+000	9.728783e+001
2584000000	7.122345e+000	1.177050e+002
2584800000	7.096280e+000	1.380548e+002
2585600000	7.064876e+000	1.583769e+002
2586400000	7.036916e+000	1.786461e+002
2587200000	7.009592e+000	-1.614047e+002
2588000000	6.979713e+000	-1.413698e+002
2588800000	6.984193e+000	-1.216974e+002
2589600000	6.981257e+000	-1.020628e+002
2590400000	6.994327e+000	-8.239469e+001
2591200000	7.033243e+000	-6.270478e+001
2592000000	7.073632e+000	-4.300353e+001
2592800000	7.111845e+000	-2.325587e+001
2593600000	7.153586e+000	-3.503954e+000
2594400000	7.204716e+000	1.643502e+001
2595200000	7.258408e+000	3.643872e+001
2596000000	7.300402e+000	5.658109e+001
